! Mini-Circuits								
! S2P DATA File Format								
! Type: BAND PASS FILTER								
! Model: ABF-7G+								
! All S Parameters are in dB deg format								
! TEST CONDITIONS: INPUT POWER = 0 dBm - +25 deg C
# MHZ S DB R 50
!Frequency          S11 dB    S11 DEG     S21 dB    S21 DEG     S12 dB    S12 DEG     S22 dB    S22 DEG
  10.0000     -7.502005E-002  1.788852E+002 -1.191886E+002 -1.447726E+002 -1.000057E+002 -5.541379E+001 -8.574693E-002  1.788755E+002
  35.0000     -9.082332E-002  1.765939E+002 -1.086735E+002  1.096035E+002 -1.005901E+002  9.779798E+001 -1.000800E-001  1.766318E+002
  60.0000     -1.061461E-001  1.743616E+002 -1.023441E+002  1.382736E+002 -1.091605E+002  1.192531E+002 -1.081591E-001  1.744427E+002
  85.0000     -1.204174E-001  1.722120E+002 -1.054916E+002  1.293453E+002 -9.753807E+001  9.794675E+001 -1.220443E-001  1.722837E+002
 110.0000     -5.591435E-002  1.696972E+002 -1.012493E+002  7.356860E+001 -9.741416E+001  8.139926E+001 -6.682961E-002  1.698308E+002
 135.0000     -1.090373E-001  1.675450E+002 -9.784604E+001  8.143830E+001 -9.598306E+001  7.710118E+001 -1.041708E-001  1.676266E+002
 160.0000     -1.360731E-001  1.653267E+002 -9.419296E+001  9.759531E+001 -9.558673E+001  8.104498E+001 -1.379817E-001  1.654665E+002
 185.0000     -1.432541E-001  1.632164E+002 -9.463512E+001  7.855785E+001 -9.418781E+001  9.272910E+001 -1.547635E-001  1.633701E+002
 210.0000     -1.447280E-001  1.611010E+002 -9.353851E+001  8.768071E+001 -9.443162E+001  8.388960E+001 -1.519225E-001  1.612524E+002
 235.0000     -1.610424E-001  1.589057E+002 -9.258857E+001  8.640353E+001 -9.283150E+001  7.908260E+001 -1.648292E-001  1.590413E+002
 260.0000     -1.838119E-001  1.567137E+002 -9.137750E+001  8.395083E+001 -9.207428E+001  8.041527E+001 -1.862544E-001  1.569332E+002
 285.0000     -2.018029E-001  1.545343E+002 -9.096546E+001  8.104359E+001 -8.949930E+001  8.009325E+001 -1.944609E-001  1.547102E+002
 310.0000     -2.031275E-001  1.523951E+002 -8.940456E+001  8.524620E+001 -8.887984E+001  8.614471E+001 -1.958629E-001  1.525903E+002
 335.0000     -2.125793E-001  1.502381E+002 -9.038041E+001  8.429498E+001 -8.869302E+001  8.430562E+001 -2.071331E-001  1.504587E+002
 360.0000     -2.285663E-001  1.481600E+002 -8.933300E+001  8.421508E+001 -8.924654E+001  8.992211E+001 -2.162644E-001  1.483596E+002
 385.0000     -2.394631E-001  1.459783E+002 -8.857825E+001  8.027406E+001 -9.056882E+001  8.380898E+001 -2.261798E-001  1.461710E+002
 410.0000     -2.436814E-001  1.437879E+002 -8.850322E+001  7.587694E+001 -8.909659E+001  8.020444E+001 -2.371939E-001  1.440079E+002
 435.0000     -2.560956E-001  1.416708E+002 -8.841393E+001  7.328367E+001 -8.674295E+001  6.996500E+001 -2.357698E-001  1.418605E+002
 460.0000     -2.554584E-001  1.395469E+002 -8.722227E+001  7.802969E+001 -8.489665E+001  7.483553E+001 -2.461476E-001  1.397203E+002
 485.0000     -2.711968E-001  1.374378E+002 -8.674884E+001  7.719501E+001 -8.563135E+001  8.291149E+001 -2.482899E-001  1.376190E+002
 510.0000     -2.804416E-001  1.352782E+002 -8.552281E+001  8.276479E+001 -8.697139E+001  8.443886E+001 -2.614313E-001  1.354966E+002
 535.0000     -2.851709E-001  1.331126E+002 -8.682815E+001  7.589154E+001 -8.606473E+001  7.951617E+001 -2.672762E-001  1.332872E+002
 560.0000     -2.856804E-001  1.309900E+002 -8.604269E+001  7.497749E+001 -8.491967E+001  7.431142E+001 -2.649740E-001  1.311822E+002
 585.0000     -2.868403E-001  1.288185E+002 -8.558839E+001  7.776762E+001 -8.371758E+001  7.138642E+001 -2.618583E-001  1.290125E+002
 610.0000     -2.942517E-001  1.267460E+002 -8.538115E+001  7.399084E+001 -8.352708E+001  7.713454E+001 -2.777008E-001  1.269616E+002
 635.0000     -3.118238E-001  1.246409E+002 -8.412241E+001  7.658380E+001 -8.373227E+001  8.111575E+001 -2.870615E-001  1.248288E+002
 660.0000     -3.184398E-001  1.223884E+002 -8.482123E+001  7.415495E+001 -8.264044E+001  8.177999E+001 -3.018790E-001  1.226771E+002
 685.0000     -3.220524E-001  1.202549E+002 -8.363220E+001  7.953339E+001 -8.352307E+001  8.006603E+001 -2.920821E-001  1.204673E+002
 710.0000     -3.079638E-001  1.180854E+002 -8.441010E+001  6.954820E+001 -8.291727E+001  7.688644E+001 -2.799868E-001  1.183223E+002
 735.0000     -3.117710E-001  1.160165E+002 -8.348496E+001  7.605345E+001 -8.372740E+001  7.547755E+001 -2.790877E-001  1.162549E+002
 760.0000     -3.286102E-001  1.139547E+002 -8.342407E+001  6.600731E+001 -8.236810E+001  7.289156E+001 -3.001839E-001  1.141829E+002
 785.0000     -3.456181E-001  1.117933E+002 -8.289101E+001  7.170728E+001 -8.192024E+001  7.260181E+001 -3.178392E-001  1.120545E+002
 810.0000     -3.414940E-001  1.095552E+002 -8.263109E+001  7.224895E+001 -8.158576E+001  7.299921E+001 -3.189534E-001  1.098208E+002
 835.0000     -3.271404E-001  1.073581E+002 -8.260955E+001  6.937919E+001 -8.102499E+001  7.336599E+001 -3.052647E-001  1.076167E+002
 860.0000     -3.201618E-001  1.052966E+002 -8.108797E+001  7.426789E+001 -8.170142E+001  8.004295E+001 -2.935680E-001  1.054776E+002
 885.0000     -3.252147E-001  1.032383E+002 -8.156938E+001  7.834998E+001 -8.200716E+001  7.885898E+001 -3.007401E-001  1.034440E+002
 910.0000     -3.542429E-001  1.011278E+002 -8.132123E+001  7.646247E+001 -7.992767E+001  7.513405E+001 -3.142148E-001  1.013579E+002
 935.0000     -3.588958E-001  9.893087E+001 -8.074075E+001  7.436670E+001 -8.056441E+001  7.024185E+001 -3.298654E-001  9.915210E+001
 960.0000     -3.535354E-001  9.669550E+001 -8.140929E+001  6.870146E+001 -8.057825E+001  7.221904E+001 -3.292591E-001  9.694141E+001
 985.0000     -3.397576E-001  9.459042E+001 -8.038867E+001  7.892648E+001 -8.087679E+001  7.303443E+001 -3.171789E-001  9.481037E+001
1010.0000     -3.392000E-001  9.245946E+001 -8.112979E+001  6.286937E+001 -7.960727E+001  7.810928E+001 -3.160457E-001  9.272482E+001
1035.0000     -3.435231E-001  9.037780E+001 -8.028725E+001  7.678350E+001 -7.947160E+001  6.955515E+001 -3.251684E-001  9.058611E+001
1060.0000     -3.536309E-001  8.821792E+001 -8.012272E+001  7.073774E+001 -7.996814E+001  7.333805E+001 -3.289346E-001  8.843539E+001
1085.0000     -3.626296E-001  8.605741E+001 -8.034912E+001  6.436113E+001 -7.902947E+001  6.581016E+001 -3.344535E-001  8.623064E+001
1110.0000     -3.523256E-001  8.389347E+001 -7.941147E+001  8.574033E+001 -8.055466E+001  7.905354E+001 -3.264223E-001  8.406403E+001
1135.0000     -3.511340E-001  8.177179E+001 -7.951065E+001  7.747941E+001 -7.913589E+001  6.817824E+001 -3.224742E-001  8.193890E+001
1160.0000     -3.579065E-001  7.963760E+001 -7.901418E+001  6.891065E+001 -7.900078E+001  7.058619E+001 -3.261631E-001  7.985997E+001
1185.0000     -3.611392E-001  7.745520E+001 -7.915039E+001  7.113927E+001 -7.889114E+001  7.138626E+001 -3.323895E-001  7.772433E+001
1210.0000     -3.533147E-001  7.529501E+001 -7.904361E+001  7.046035E+001 -7.864290E+001  6.850457E+001 -3.412378E-001  7.554819E+001
1235.0000     -3.473159E-001  7.307778E+001 -7.860738E+001  6.745547E+001 -7.835665E+001  7.091290E+001 -3.286192E-001  7.335651E+001
1260.0000     -3.538202E-001  7.103825E+001 -7.856795E+001  6.421220E+001 -7.829159E+001  7.592679E+001 -3.253855E-001  7.121336E+001
1285.0000     -3.588185E-001  6.893532E+001 -7.764432E+001  6.460749E+001 -7.934414E+001  7.035586E+001 -3.280105E-001  6.914559E+001
1310.0000     -3.674783E-001  6.676162E+001 -7.824349E+001  7.665904E+001 -7.787983E+001  6.583704E+001 -3.391454E-001  6.699133E+001
1335.0000     -3.657937E-001  6.457755E+001 -7.771425E+001  7.553770E+001 -7.819949E+001  6.590167E+001 -3.391035E-001  6.474208E+001
1360.0000     -3.525785E-001  6.237250E+001 -7.792251E+001  7.288008E+001 -7.729543E+001  5.703161E+001 -3.228258E-001  6.261091E+001
1385.0000     -3.422961E-001  6.024289E+001 -7.835490E+001  6.192311E+001 -7.614069E+001  5.798523E+001 -3.151039E-001  6.046605E+001
1410.0000     -3.449194E-001  5.813679E+001 -7.637888E+001  5.628731E+001 -7.687890E+001  6.596622E+001 -3.263969E-001  5.840793E+001
1435.0000     -3.572601E-001  5.602869E+001 -7.633673E+001  5.894035E+001 -7.676116E+001  6.352332E+001 -3.371601E-001  5.623895E+001
1460.0000     -3.587811E-001  5.379815E+001 -7.673509E+001  6.335240E+001 -7.652895E+001  7.242534E+001 -3.425916E-001  5.402980E+001
1485.0000     -3.489614E-001  5.157243E+001 -7.626044E+001  7.349552E+001 -7.730211E+001  7.664907E+001 -3.243354E-001  5.179555E+001
1510.0000     -3.185751E-001  4.941275E+001 -7.786185E+001  8.378398E+001 -7.697639E+001  7.289398E+001 -2.984154E-001  4.966337E+001
1535.0000     -3.037125E-001  4.740146E+001 -7.717993E+001  7.093552E+001 -7.660411E+001  7.810934E+001 -2.795539E-001  4.761098E+001
1560.0000     -3.136546E-001  4.522430E+001 -7.550902E+001  5.950521E+001 -7.668313E+001  5.943520E+001 -2.794256E-001  4.549261E+001
1585.0000     -3.174822E-001  4.288955E+001 -7.566314E+001  5.765685E+001 -7.571956E+001  6.032355E+001 -2.940954E-001  4.315224E+001
1610.0000     -3.093700E-001  4.044153E+001 -7.633698E+001  6.460265E+001 -7.609598E+001  6.385917E+001 -2.965907E-001  4.072647E+001
1635.0000     -3.023677E-001  3.810036E+001 -7.613276E+001  6.235733E+001 -7.609439E+001  6.382751E+001 -2.895863E-001  3.833500E+001
1660.0000     -3.048270E-001  3.595149E+001 -7.587565E+001  6.295329E+001 -7.587218E+001  6.394946E+001 -2.923709E-001  3.621943E+001
1685.0000     -3.227798E-001  3.398961E+001 -7.572148E+001  6.261443E+001 -7.560559E+001  6.346536E+001 -3.102244E-001  3.417972E+001
1710.0000     -3.692603E-001  3.182004E+001 -7.569688E+001  6.221235E+001 -7.562226E+001  6.227095E+001 -3.410583E-001  3.210250E+001
1735.0000     -3.787356E-001  2.957198E+001 -7.576109E+001  6.190838E+001 -7.529517E+001  6.131591E+001 -3.623231E-001  2.984596E+001
1760.0000     -3.712341E-001  2.738032E+001 -7.571709E+001  6.166000E+001 -7.530794E+001  6.193126E+001 -3.472957E-001  2.761843E+001
1785.0000     -3.447221E-001  2.527069E+001 -7.558555E+001  6.298665E+001 -7.519850E+001  6.159603E+001 -3.276806E-001  2.548455E+001
1810.0000     -3.290642E-001  2.315298E+001 -7.549944E+001  6.198383E+001 -7.525995E+001  6.200563E+001 -3.201434E-001  2.343590E+001
1835.0000     -3.425975E-001  2.109325E+001 -7.531047E+001  6.178111E+001 -7.504381E+001  6.233880E+001 -3.292678E-001  2.136814E+001
1860.0000     -3.465836E-001  1.890875E+001 -7.507435E+001  6.198444E+001 -7.480202E+001  6.281584E+001 -3.365080E-001  1.909533E+001
1885.0000     -3.475282E-001  1.662364E+001 -7.499240E+001  6.275678E+001 -7.460635E+001  6.118361E+001 -3.308830E-001  1.682677E+001
1910.0000     -3.426790E-001  1.439740E+001 -7.480428E+001  6.128440E+001 -7.456770E+001  6.095575E+001 -3.127198E-001  1.464616E+001
1935.0000     -3.223388E-001  1.225002E+001 -7.457180E+001  6.007834E+001 -7.425810E+001  5.990135E+001 -3.078226E-001  1.248949E+001
1960.0000     -3.306324E-001  1.009777E+001 -7.429704E+001  5.964632E+001 -7.427372E+001  5.881867E+001 -3.124942E-001  1.033741E+001
1985.0000     -3.203731E-001  7.883619E+000 -7.413051E+001  5.811499E+001 -7.417687E+001  5.896107E+001 -3.104657E-001  8.120344E+000
2010.0000     -3.099433E-001  5.689619E+000 -7.435021E+001  5.951099E+001 -7.408102E+001  5.731889E+001 -2.991666E-001  5.887927E+000
2210.0000     -2.593194E-001 -1.235311E+001 -7.222781E+001  4.631496E+001 -7.121856E+001  6.931391E+001 -2.523209E-001 -1.215026E+001
2310.0000     -2.769627E-001 -2.162905E+001 -7.147803E+001  5.549599E+001 -7.450398E+001  3.412518E+001 -2.581242E-001 -2.138102E+001
2360.0000     -3.073374E-001 -2.593913E+001 -7.142271E+001  5.601518E+001 -7.173874E+001  7.264185E+001 -2.964705E-001 -2.574998E+001
2710.0000     -2.915713E-001 -5.776322E+001 -7.099966E+001  4.491008E+001 -7.146740E+001  4.236545E+001 -2.623593E-001 -5.769447E+001
2760.0000     -2.848853E-001 -6.255925E+001 -7.121400E+001  4.266799E+001 -7.100358E+001  4.337853E+001 -2.700873E-001 -6.246358E+001
2810.0000     -2.582816E-001 -6.707898E+001 -7.075951E+001  4.188819E+001 -7.075953E+001  4.072488E+001 -2.548226E-001 -6.708270E+001
2860.0000     -2.786421E-001 -7.172931E+001 -7.071173E+001  4.141250E+001 -7.067824E+001  4.005303E+001 -2.575951E-001 -7.160062E+001
2910.0000     -2.720662E-001 -7.654895E+001 -7.078348E+001  3.862863E+001 -7.050866E+001  3.902896E+001 -2.620472E-001 -7.647273E+001
3010.0000     -2.589921E-001 -8.582013E+001 -7.021141E+001  3.655830E+001 -7.005546E+001  3.687170E+001 -2.335965E-001 -8.578202E+001
3035.0000     -2.581401E-001 -8.819014E+001 -7.015765E+001  3.696065E+001 -7.002544E+001  3.696679E+001 -2.519407E-001 -8.824092E+001
3060.0000     -2.524669E-001 -9.071194E+001 -7.025887E+001  3.585122E+001 -6.987755E+001  3.581496E+001 -2.367510E-001 -9.076386E+001
3085.0000     -2.227882E-001 -9.302010E+001 -7.008439E+001  3.494006E+001 -6.989457E+001  3.526253E+001 -2.092562E-001 -9.315808E+001
3110.0000     -2.233777E-001 -9.549484E+001 -6.988187E+001  3.317783E+001 -6.975966E+001  3.434036E+001 -1.941057E-001 -9.542795E+001
3135.0000     -2.256844E-001 -9.775626E+001 -6.982829E+001  3.360334E+001 -6.959201E+001  3.323886E+001 -2.106290E-001 -9.788103E+001
3160.0000     -2.487554E-001 -1.001973E+002 -6.989457E+001  3.321416E+001 -6.966786E+001  3.317344E+001 -2.219864E-001 -1.002775E+002
3185.0000     -2.599357E-001 -1.026340E+002 -6.987256E+001  3.216933E+001 -6.956689E+001  3.140853E+001 -2.365471E-001 -1.028502E+002
3210.0000     -2.472636E-001 -1.051660E+002 -6.985758E+001  3.071369E+001 -6.948763E+001  3.058510E+001 -2.298587E-001 -1.053442E+002
3235.0000     -2.441805E-001 -1.076697E+002 -6.959008E+001  3.073974E+001 -6.947861E+001  3.019338E+001 -2.178223E-001 -1.077171E+002
3260.0000     -2.410387E-001 -1.100497E+002 -6.954697E+001  2.979343E+001 -6.932040E+001  2.967244E+001 -2.193340E-001 -1.100729E+002
3285.0000     -2.496486E-001 -1.123512E+002 -6.946675E+001  2.978702E+001 -6.919730E+001  2.935070E+001 -2.388903E-001 -1.124716E+002
3310.0000     -2.848046E-001 -1.147108E+002 -6.946513E+001  2.855331E+001 -6.917228E+001  2.863935E+001 -2.736288E-001 -1.149454E+002
3335.0000     -3.036354E-001 -1.171305E+002 -6.932458E+001  2.687508E+001 -6.915338E+001  2.889111E+001 -2.730419E-001 -1.174138E+002
3360.0000     -3.009981E-001 -1.196238E+002 -6.924606E+001  2.649843E+001 -6.908348E+001  2.724194E+001 -2.738414E-001 -1.198318E+002
3385.0000     -2.943658E-001 -1.220379E+002 -6.899377E+001  2.616667E+001 -6.897601E+001  2.659211E+001 -2.729802E-001 -1.221599E+002
3410.0000     -3.105936E-001 -1.243266E+002 -6.899581E+001  2.560138E+001 -6.896382E+001  2.635266E+001 -2.871636E-001 -1.245162E+002
3435.0000     -3.245003E-001 -1.267354E+002 -6.898370E+001  2.565927E+001 -6.879057E+001  2.540740E+001 -3.010866E-001 -1.269402E+002
3460.0000     -3.258581E-001 -1.291347E+002 -6.902870E+001  2.524534E+001 -6.878743E+001  2.377982E+001 -2.981240E-001 -1.294184E+002
3485.0000     -3.105516E-001 -1.314700E+002 -6.882137E+001  2.414912E+001 -6.870976E+001  2.373790E+001 -3.020933E-001 -1.317092E+002
3510.0000     -3.274277E-001 -1.338421E+002 -6.887784E+001  2.269232E+001 -6.864356E+001  2.322016E+001 -2.998707E-001 -1.341023E+002
3535.0000     -3.419415E-001 -1.363231E+002 -6.871278E+001  2.041148E+001 -6.856429E+001  2.186393E+001 -3.147950E-001 -1.365178E+002
3560.0000     -3.611477E-001 -1.388668E+002 -6.855845E+001  1.984809E+001 -6.838409E+001  2.203429E+001 -3.320690E-001 -1.390443E+002
3585.0000     -3.314918E-001 -1.412611E+002 -6.844244E+001  1.903416E+001 -6.853145E+001  2.125749E+001 -3.177593E-001 -1.415508E+002
3610.0000     -3.187239E-001 -1.436047E+002 -6.840045E+001  2.110976E+001 -6.843864E+001  1.988754E+001 -3.029306E-001 -1.438600E+002
3635.0000     -3.257376E-001 -1.458757E+002 -6.854567E+001  1.913823E+001 -6.820212E+001  1.897331E+001 -3.042259E-001 -1.461319E+002
3660.0000     -3.571892E-001 -1.482514E+002 -6.846786E+001  1.822512E+001 -6.804177E+001  1.771816E+001 -3.305676E-001 -1.485583E+002
3685.0000     -3.845667E-001 -1.509064E+002 -6.814236E+001  1.646572E+001 -6.804852E+001  1.824322E+001 -3.534192E-001 -1.512068E+002
3710.0000     -3.561211E-001 -1.534540E+002 -6.802396E+001  1.738428E+001 -6.798725E+001  1.723985E+001 -3.360066E-001 -1.537557E+002
3735.0000     -3.413789E-001 -1.557719E+002 -6.798391E+001  1.636707E+001 -6.794975E+001  1.621701E+001 -3.174933E-001 -1.561663E+002
3760.0000     -3.363987E-001 -1.580195E+002 -6.803443E+001  1.613436E+001 -6.782558E+001  1.525843E+001 -3.021596E-001 -1.583936E+002
3785.0000     -3.611538E-001 -1.604450E+002 -6.800716E+001  1.328975E+001 -6.768690E+001  1.319141E+001 -3.369313E-001 -1.608441E+002
3810.0000     -3.852871E-001 -1.630766E+002 -6.782150E+001  1.288065E+001 -6.763521E+001  1.269028E+001 -3.574981E-001 -1.634476E+002
3835.0000     -3.671242E-001 -1.655872E+002 -6.754781E+001  1.242321E+001 -6.742112E+001  1.268023E+001 -3.485499E-001 -1.659975E+002
3860.0000     -3.584246E-001 -1.679856E+002 -6.755357E+001  1.235087E+001 -6.752006E+001  1.231922E+001 -3.393341E-001 -1.684761E+002
3885.0000     -3.556780E-001 -1.703091E+002 -6.759705E+001  1.181128E+001 -6.740909E+001  1.062258E+001 -3.239968E-001 -1.707225E+002
3910.0000     -3.757681E-001 -1.727136E+002 -6.757574E+001  9.175089E+000 -6.739383E+001  1.101225E+001 -3.549010E-001 -1.731132E+002
3935.0000     -4.070877E-001 -1.752671E+002 -6.725674E+001  8.182590E+000 -6.709815E+001  7.777231E+000 -3.637213E-001 -1.756483E+002
3960.0000     -3.859811E-001 -1.777587E+002 -6.708014E+001  8.572400E+000 -6.726468E+001  8.811076E+000 -3.675293E-001 -1.781347E+002
3985.0000     -3.908251E-001  1.799606E+002 -6.714101E+001  8.781403E+000 -6.700247E+001  7.843770E+000 -3.691712E-001  1.793355E+002
4010.0000     -3.889808E-001  1.774578E+002 -6.732260E+001  7.831008E+000 -6.700494E+001  6.571911E+000 -3.574984E-001  1.769933E+002
4035.0000     -3.973214E-001  1.750162E+002 -6.709138E+001  5.340282E+000 -6.684899E+001  5.754456E+000 -3.702386E-001  1.745745E+002
4060.0000     -4.010636E-001  1.723537E+002 -6.690124E+001  3.541513E+000 -6.680302E+001  5.249258E+000 -3.698662E-001  1.721065E+002
4085.0000     -3.894131E-001  1.699534E+002 -6.679095E+001  4.345664E+000 -6.665480E+001  4.738447E+000 -3.843467E-001  1.696101E+002
4110.0000     -4.141036E-001  1.676272E+002 -6.669999E+001  3.958597E+000 -6.662392E+001  2.663353E+000 -3.867012E-001  1.670879E+002
4135.0000     -4.127122E-001  1.652013E+002 -6.673323E+001  2.488666E+000 -6.647445E+001  2.090748E+000 -3.761720E-001  1.647568E+002
4160.0000     -4.246941E-001  1.628101E+002 -6.658179E+001  7.182436E-001 -6.633969E+001  9.020241E-001 -3.954664E-001  1.622409E+002
4185.0000     -4.235732E-001  1.603058E+002 -6.645145E+001 -3.637998E-001 -6.613743E+001  9.369590E-001 -3.931224E-001  1.598059E+002
4210.0000     -4.286073E-001  1.577285E+002 -6.621531E+001 -1.143266E+000 -6.612748E+001  3.242488E-002 -4.128075E-001  1.572044E+002
4235.0000     -4.212255E-001  1.551695E+002 -6.609791E+001 -9.728332E-002 -6.615697E+001 -1.107378E+000 -3.984701E-001  1.546464E+002
4260.0000     -4.279746E-001  1.527230E+002 -6.601328E+001 -1.606394E+000 -6.595671E+001 -2.620547E+000 -3.951400E-001  1.522993E+002
4285.0000     -4.449911E-001  1.502528E+002 -6.622328E+001 -3.323325E+000 -6.579330E+001 -4.099583E+000 -4.097339E-001  1.498151E+002
4310.0000     -4.609734E-001  1.476984E+002 -6.588340E+001 -5.181081E+000 -6.546981E+001 -3.856430E+000 -4.245202E-001  1.474049E+002
4335.0000     -4.621291E-001  1.451594E+002 -6.550896E+001 -6.021824E+000 -6.547517E+001 -4.128077E+000 -4.513596E-001  1.446802E+002
4360.0000     -4.744489E-001  1.425537E+002 -6.531427E+001 -4.603006E+000 -6.551953E+001 -5.357344E+000 -4.415238E-001  1.420586E+002
4385.0000     -4.488016E-001  1.401644E+002 -6.532330E+001 -6.747653E+000 -6.535239E+001 -7.141016E+000 -4.284474E-001  1.396770E+002
4410.0000     -4.684045E-001  1.377935E+002 -6.533251E+001 -7.976000E+000 -6.498506E+001 -8.758031E+000 -4.358212E-001  1.372780E+002
