!Created: 04-04-2014 at 11:01:39
!MODEL: HSWA2-30DR+
!S/N: Unit 1
!RUN:QN1045128, D/C:1042
!All RF2 ON
!PORT EXTENSION HAS BEEN DONE
!PORT-1= PIN-8, PORT-2=PIN-3, PORT-3=PIN-13.
# MHZ S DB R 50
!Frequency        S11 dB  S11 DEG   S12 dB  S12 DEG   S13 dB  S13 DEG
!                 S21 dB  S21 DEG   S22 dB  S22 DEG   S23 dB  S23 DEG
!                 S31 dB  S31 DEG   S32 dB  S32 DEG   S33 dB  S33 DEG
   1.0000     -2.191545E+001  5.717202E-001 -1.067915E+002  7.531821E+001 -7.288200E-001 -7.190631E-002
              -1.033193E+002 -5.797713E+001 -2.755179E+001 -5.802305E-001 -1.040494E+002  1.609699E+002
              -8.106329E-001 -1.215585E-001 -9.606433E+001 -1.546828E+002 -2.240171E+001  1.011929E+000
   2.0000     -2.199626E+001 -2.242061E-001 -1.146996E+002  1.365314E+002 -7.310473E-001 -9.632631E-002
              -9.684226E+001  2.237394E+000 -2.766614E+001 -2.328940E-001 -9.803183E+001  1.708728E+002
              -8.025038E-001 -8.498569E-002 -9.907166E+001  1.506717E+001 -2.232533E+001  7.219593E-001
   3.0000     -2.198681E+001 -6.746627E-001 -9.917365E+001 -1.114385E+002 -7.308887E-001 -1.119248E-001
              -1.160722E+002  9.920209E+001 -2.760696E+001 -1.279398E-001 -9.992731E+001  7.850347E+000
              -7.966743E-001 -1.350161E-001 -1.076521E+002 -1.048360E+002 -2.231886E+001 -3.559343E-001
   4.0000     -2.199144E+001 -3.694287E-001 -9.949503E+001  2.578700E+001 -7.290300E-001 -1.242243E-001
              -1.138669E+002 -5.674029E+001 -2.759880E+001 -1.611788E-001 -1.055231E+002  9.628008E+001
              -7.898732E-001 -1.752023E-001 -9.348428E+001 -9.299846E+001 -2.229510E+001 -3.005163E-001
   5.0000     -2.198884E+001 -6.785271E-001 -9.758562E+001  2.144586E+001 -7.272351E-001 -1.389928E-001
              -1.031472E+002 -3.208632E+001 -2.759093E+001 -1.361633E-001 -1.031089E+002  7.355215E+001
              -7.852435E-001 -2.026393E-001 -9.841447E+001 -6.398481E+001 -2.227804E+001 -5.228069E-001
   6.0000     -2.196988E+001 -6.156207E-001 -1.022853E+002 -1.709563E+002 -7.259358E-001 -1.758521E-001
              -1.010283E+002  1.420521E+001 -2.758061E+001 -2.664649E-001 -9.983100E+001  3.220004E+001
              -7.821293E-001 -2.414221E-001 -1.149762E+002  1.255756E+002 -2.223419E+001 -8.150892E-001
   7.0000     -2.196947E+001 -7.129105E-001 -1.139852E+002 -5.861608E+001 -7.262075E-001 -2.052433E-001
              -1.051551E+002 -6.883881E+001 -2.756847E+001 -2.905039E-001 -1.024607E+002  1.533148E+002
              -7.803846E-001 -2.801010E-001 -9.963798E+001  2.049374E+001 -2.223485E+001 -1.044999E+000
   8.0000     -2.196011E+001 -8.513373E-001 -9.781983E+001  4.867061E+001 -7.272614E-001 -2.294750E-001
              -1.075344E+002 -7.430972E+001 -2.755003E+001 -2.526894E-001 -1.062109E+002  1.732354E+002
              -7.780558E-001 -3.023185E-001 -1.095378E+002 -1.388295E+002 -2.222007E+001 -1.046036E+000
   9.0000     -2.195582E+001 -1.086434E+000 -1.108619E+002  1.096747E+002 -7.260637E-001 -2.596660E-001
              -1.177991E+002  2.861139E+001 -2.756052E+001 -3.065040E-001 -1.076208E+002  1.740375E+002
              -7.775865E-001 -3.273046E-001 -9.965361E+001  3.364503E+001 -2.217937E+001 -1.074077E+000
  10.0000     -2.190881E+001 -9.092047E-001 -9.197278E+001  1.654322E+002 -7.244242E-001 -2.801828E-001
              -9.501429E+001 -1.273623E+002 -2.759837E+001 -6.615242E-001 -9.349650E+001  1.351385E+002
              -7.831348E-001 -4.182375E-001 -9.011803E+001 -1.549771E+002 -2.209442E+001 -2.009471E-001
  15.0000     -2.189404E+001 -2.056486E+000 -8.922794E+001  7.712796E-002 -7.245110E-001 -4.268193E-001
              -9.641010E+001  1.051225E+002 -2.756042E+001 -7.521401E-001 -9.917416E+001  1.475643E+002
              -7.788106E-001 -5.182499E-001 -1.051349E+002  6.406405E+000 -2.205789E+001 -1.492473E+000
  20.0000     -2.185977E+001 -2.432556E+000 -9.440165E+001 -7.034344E+001 -7.223156E-001 -5.669978E-001
              -9.734159E+001  9.261663E+001 -2.751955E+001 -7.786183E-001 -9.784142E+001  5.710360E+001
              -7.783391E-001 -6.316713E-001 -9.314782E+001  4.921059E+001 -2.214065E+001 -2.172806E+000
  25.0000     -2.180068E+001 -3.106532E+000 -1.037237E+002  1.234707E+002 -7.176886E-001 -6.946349E-001
              -9.176266E+001  1.119809E+002 -2.752420E+001 -9.195852E-001 -9.150890E+001  1.003345E+002
              -7.768487E-001 -7.431111E-001 -8.865511E+001  9.083804E+001 -2.215815E+001 -3.002312E+000
  30.0000     -2.175131E+001 -3.992243E+000 -9.698146E+001  1.499207E+002 -7.164726E-001 -8.297357E-001
              -9.956115E+001  4.031168E+001 -2.753309E+001 -1.234786E+000 -9.433900E+001  3.283863E+001
              -7.711407E-001 -8.538696E-001 -8.998609E+001  1.631976E+002 -2.211401E+001 -3.818286E+000
  35.0000     -2.175698E+001 -4.767892E+000 -1.059452E+002  9.436289E+001 -7.152452E-001 -9.543065E-001
              -9.690157E+001  3.541432E+001 -2.752373E+001 -1.351364E+000 -9.196970E+001  9.126437E+001
              -7.681400E-001 -9.738443E-001 -9.403194E+001  9.801302E+001 -2.211935E+001 -4.306598E+000
  40.0000     -2.179423E+001 -5.424240E+000 -9.743726E+001  1.363053E+002 -7.147232E-001 -1.091476E+000
              -9.220402E+001  4.336578E+001 -2.752020E+001 -1.622734E+000 -9.161015E+001  7.631900E+001
              -7.655914E-001 -1.082168E+000 -9.756169E+001  1.001126E+002 -2.210984E+001 -4.847384E+000
  45.0000     -2.181564E+001 -6.302372E+000 -8.796409E+001  9.811845E+001 -7.138975E-001 -1.220101E+000
              -1.060204E+002 -2.080395E+001 -2.750549E+001 -1.864615E+000 -9.939989E+001  9.450739E+001
              -7.624589E-001 -1.194438E+000 -8.601606E+001  1.011905E+002 -2.204716E+001 -5.545640E+000
  50.0000     -2.182699E+001 -7.029236E+000 -9.680887E+001  3.125628E+001 -7.152271E-001 -1.344419E+000
              -9.708912E+001  8.127087E+001 -2.749545E+001 -2.149126E+000 -9.036227E+001  1.169921E+002
              -7.571857E-001 -1.326271E+000 -8.526412E+001  8.840105E+001 -2.199738E+001 -6.371752E+000
  55.0000     -2.182948E+001 -7.773502E+000 -9.918647E+001 -9.629398E+001 -7.134849E-001 -1.472833E+000
              -9.519127E+001  8.627036E+001 -2.748020E+001 -2.462027E+000 -8.669757E+001  8.312765E+001
              -7.538528E-001 -1.450614E+000 -9.072975E+001  1.208323E+002 -2.195749E+001 -7.038271E+000
  60.0000     -2.184288E+001 -8.548034E+000 -9.858923E+001  1.202042E+002 -7.134063E-001 -1.595117E+000
              -9.219072E+001  1.270455E+002 -2.745012E+001 -2.642601E+000 -8.814191E+001  1.031128E+002
              -7.543392E-001 -1.578011E+000 -8.707541E+001  8.887032E+001 -2.194713E+001 -7.861211E+000
  65.0000     -2.184506E+001 -9.062392E+000 -1.088509E+002  9.629780E+001 -7.116281E-001 -1.724601E+000
              -9.530518E+001  4.405228E+001 -2.742691E+001 -2.925849E+000 -8.240259E+001  8.338155E+001
              -7.533535E-001 -1.695998E+000 -8.773740E+001  7.185103E+001 -2.194542E+001 -8.559358E+000
  70.0000     -2.180888E+001 -9.811584E+000 -9.480319E+001  1.753595E+002 -7.119757E-001 -1.852142E+000
              -1.043398E+002  6.123306E+001 -2.739161E+001 -3.093151E+000 -8.533546E+001  7.226910E+001
              -7.538419E-001 -1.819665E+000 -8.842130E+001  8.902549E+001 -2.194805E+001 -9.222162E+000
  75.0000     -2.176188E+001 -1.046943E+001 -8.799168E+001  6.768493E+001 -7.122703E-001 -1.971807E+000
              -1.038271E+002 -1.649304E+002 -2.735150E+001 -3.044464E+000 -8.668858E+001  8.060990E+001
              -7.515363E-001 -1.951481E+000 -8.264050E+001  8.387492E+001 -2.193570E+001 -9.914028E+000
  80.0000     -2.170586E+001 -1.115462E+001 -1.051702E+002  6.822813E+001 -7.110508E-001 -2.098699E+000
              -9.648794E+001  1.358959E+002 -2.733728E+001 -3.319845E+000 -8.508042E+001  8.037656E+001
              -7.525207E-001 -2.067164E+000 -8.588776E+001  8.234195E+001 -2.192532E+001 -1.059208E+001
  85.0000     -2.163484E+001 -1.181795E+001 -1.005308E+002  4.783819E+001 -7.105356E-001 -2.218767E+000
              -9.738521E+001 -1.657981E+001 -2.729880E+001 -3.349467E+000 -8.306091E+001  7.711013E+001
              -7.499234E-001 -2.194163E+000 -9.173491E+001  8.922455E+001 -2.187884E+001 -1.127957E+001
  90.0000     -2.160463E+001 -1.244127E+001 -8.938291E+001  6.013409E+001 -7.100757E-001 -2.348774E+000
              -9.116711E+001 -1.371800E+002 -2.727437E+001 -3.348654E+000 -8.777856E+001  7.644406E+001
              -7.504536E-001 -2.314501E+000 -8.253529E+001  8.221339E+001 -2.186200E+001 -1.178681E+001
  95.0000     -2.158521E+001 -1.306427E+001 -1.018984E+002  2.265404E+001 -7.107720E-001 -2.461798E+000
              -8.679235E+001  1.503675E+002 -2.725434E+001 -3.306176E+000 -8.146236E+001  1.106473E+002
              -7.496643E-001 -2.428518E+000 -8.484612E+001  7.782209E+001 -2.184076E+001 -1.235248E+001
 100.0000     -2.157051E+001 -1.373336E+001 -9.082902E+001 -1.458152E+002 -7.110572E-001 -2.582311E+000
              -9.290390E+001  4.616416E+001 -2.722477E+001 -3.431804E+000 -8.342776E+001  1.007933E+002
              -7.481887E-001 -2.547235E+000 -8.429854E+001  1.252877E+002 -2.181234E+001 -1.302540E+001
 105.0000     -2.158032E+001 -1.445336E+001 -9.681757E+001  9.405488E+001 -7.102857E-001 -2.697529E+000
              -1.109672E+002 -1.071518E+002 -2.721482E+001 -3.342096E+000 -8.224108E+001  7.400635E+001
              -7.486588E-001 -2.670214E+000 -8.239717E+001  1.011923E+002 -2.178331E+001 -1.351899E+001
 110.0000     -2.158101E+001 -1.511148E+001 -9.212061E+001  1.040291E+002 -7.121122E-001 -2.818615E+000
              -9.552036E+001  8.975539E+001 -2.721223E+001 -3.335120E+000 -8.256224E+001  9.548750E+001
              -7.469178E-001 -2.784339E+000 -8.278394E+001  7.853693E+001 -2.174439E+001 -1.410914E+001
 115.0000     -2.158917E+001 -1.571251E+001 -1.005951E+002 -1.654133E+002 -7.108324E-001 -2.941070E+000
              -9.430527E+001  6.657438E+001 -2.721633E+001 -3.504421E+000 -8.269114E+001  9.863124E+001
              -7.454370E-001 -2.908422E+000 -8.473107E+001  1.067935E+002 -2.171829E+001 -1.484501E+001
 120.0000     -2.160898E+001 -1.645052E+001 -8.993012E+001  8.508707E+001 -7.121493E-001 -3.060209E+000
              -9.371297E+001  1.256408E+002 -2.722790E+001 -3.466864E+000 -8.270107E+001  7.560957E+001
              -7.445380E-001 -3.033167E+000 -7.964033E+001  8.558682E+001 -2.167293E+001 -1.546363E+001
 125.0000     -2.160714E+001 -1.719789E+001 -9.308545E+001  1.208582E+002 -7.116280E-001 -3.173010E+000
              -9.529166E+001  1.315415E+002 -2.723309E+001 -3.573275E+000 -8.261990E+001  8.256394E+001
              -7.437245E-001 -3.148082E+000 -8.189389E+001  7.667645E+001 -2.165751E+001 -1.614783E+001
 130.0000     -2.160697E+001 -1.783854E+001 -9.015705E+001  9.976476E+001 -7.134451E-001 -3.294883E+000
              -9.293935E+001  1.575020E+002 -2.723652E+001 -3.589325E+000 -8.005476E+001  8.625981E+001
              -7.433960E-001 -3.275083E+000 -8.145389E+001  9.671670E+001 -2.167304E+001 -1.694261E+001
 135.0000     -2.161237E+001 -1.852786E+001 -8.948093E+001  1.384125E+002 -7.122325E-001 -3.416668E+000
              -9.819489E+001 -1.776211E+002 -2.725050E+001 -3.767804E+000 -8.133825E+001  7.707106E+001
              -7.438623E-001 -3.393906E+000 -8.213024E+001  8.901900E+001 -2.170781E+001 -1.773870E+001
 140.0000     -2.160373E+001 -1.929288E+001 -9.512781E+001  1.114383E+002 -7.129170E-001 -3.532650E+000
              -9.070556E+001  1.236019E+002 -2.725571E+001 -4.039774E+000 -8.086023E+001  9.239319E+001
              -7.440978E-001 -3.517904E+000 -7.994707E+001  9.793162E+001 -2.175137E+001 -1.858800E+001
 145.0000     -2.158246E+001 -2.005103E+001 -9.047990E+001  1.282030E+002 -7.127532E-001 -3.649718E+000
              -9.186570E+001  1.001824E+002 -2.724496E+001 -4.293750E+000 -7.885813E+001  9.592751E+001
              -7.446449E-001 -3.631585E+000 -8.037602E+001  9.433805E+001 -2.178575E+001 -1.939871E+001
 150.0000     -2.157794E+001 -2.064345E+001 -8.745914E+001  1.059046E+002 -7.130564E-001 -3.766406E+000
              -9.269122E+001  1.344238E+002 -2.724702E+001 -4.541538E+000 -8.055849E+001  8.322677E+001
              -7.451957E-001 -3.754882E+000 -7.889999E+001  9.394073E+001 -2.178693E+001 -2.024648E+001
 155.0000     -2.155791E+001 -2.133299E+001 -1.079962E+002 -6.675484E+001 -7.133706E-001 -3.891709E+000
              -8.878738E+001  9.495946E+001 -2.723573E+001 -4.902007E+000 -8.149793E+001  9.668003E+001
              -7.450442E-001 -3.867411E+000 -8.020148E+001  8.294883E+001 -2.175243E+001 -2.094663E+001
 160.0000     -2.152534E+001 -2.200136E+001 -8.959099E+001  9.169174E+001 -7.144276E-001 -4.002506E+000
              -8.877459E+001  8.825732E+001 -2.722076E+001 -5.169168E+000 -8.246411E+001  9.964021E+001
              -7.460326E-001 -3.991490E+000 -7.772027E+001  8.732548E+001 -2.169612E+001 -2.137668E+001
 165.0000     -2.147202E+001 -2.259803E+001 -8.848014E+001  1.417104E+002 -7.154115E-001 -4.119791E+000
              -8.879783E+001  7.264837E+001 -2.721070E+001 -5.406809E+000 -7.711260E+001  8.821180E+001
              -7.452354E-001 -4.108594E+000 -7.889542E+001  1.036251E+002 -2.162988E+001 -2.160718E+001
 170.0000     -2.143626E+001 -2.316165E+001 -8.611821E+001  1.134734E+002 -7.166910E-001 -4.226563E+000
              -8.609077E+001  1.079012E+002 -2.718711E+001 -5.704217E+000 -7.828547E+001  9.048090E+001
              -7.450953E-001 -4.209705E+000 -7.855274E+001  9.011453E+001 -2.155948E+001 -2.189936E+001
 175.0000     -2.138381E+001 -2.374205E+001 -9.477553E+001  1.322814E+002 -7.176167E-001 -4.351461E+000
              -8.400191E+001  1.229624E+002 -2.716156E+001 -5.992284E+000 -7.777095E+001  8.589281E+001
              -7.441388E-001 -4.330387E+000 -8.139185E+001  8.678518E+001 -2.148603E+001 -2.222391E+001
 180.0000     -2.133221E+001 -2.427664E+001 -8.529493E+001  1.115267E+002 -7.180011E-001 -4.472177E+000
              -9.046107E+001  1.385741E+002 -2.713764E+001 -6.182292E+000 -8.024953E+001  8.508861E+001
              -7.431212E-001 -4.445914E+000 -7.733566E+001  9.718620E+001 -2.143275E+001 -2.235881E+001
 185.0000     -2.127882E+001 -2.477745E+001 -8.572964E+001  1.256931E+002 -7.184617E-001 -4.588756E+000
              -8.766764E+001  1.398523E+002 -2.710048E+001 -6.345504E+000 -7.694267E+001  9.723607E+001
              -7.432883E-001 -4.562897E+000 -7.818561E+001  8.108144E+001 -2.138771E+001 -2.284472E+001
 190.0000     -2.122978E+001 -2.535448E+001 -8.811102E+001  1.409705E+002 -7.183607E-001 -4.701940E+000
              -8.714185E+001  1.314694E+002 -2.707433E+001 -6.487689E+000 -7.803839E+001  9.069852E+001
              -7.435536E-001 -4.681637E+000 -7.828808E+001  9.914416E+001 -2.135149E+001 -2.341812E+001
 195.0000     -2.117361E+001 -2.589205E+001 -8.729457E+001  1.706252E+002 -7.182072E-001 -4.819534E+000
              -8.636200E+001  1.032464E+002 -2.704063E+001 -6.597919E+000 -7.817611E+001  9.688892E+001
              -7.414394E-001 -4.802910E+000 -7.843133E+001  9.808105E+001 -2.134662E+001 -2.409074E+001
 200.0000     -2.113940E+001 -2.651344E+001 -8.304578E+001  1.161930E+002 -7.177488E-001 -4.938262E+000
              -8.626269E+001  1.158580E+002 -2.699709E+001 -6.579809E+000 -7.705658E+001  9.072695E+001
              -7.435507E-001 -4.919870E+000 -7.567202E+001  9.934632E+001 -2.134013E+001 -2.464714E+001
 205.0000     -2.110235E+001 -2.710871E+001 -8.745194E+001  1.253612E+002 -7.188303E-001 -5.057656E+000
              -8.426468E+001  1.268389E+002 -2.695984E+001 -6.657637E+000 -7.732951E+001  9.449603E+001
              -7.444449E-001 -5.036387E+000 -7.894289E+001  8.743869E+001 -2.132459E+001 -2.539140E+001
 210.0000     -2.108953E+001 -2.774277E+001 -9.388646E+001  1.205501E+002 -7.185126E-001 -5.176394E+000
              -8.493395E+001  1.318629E+002 -2.693971E+001 -6.755490E+000 -7.677624E+001  9.786713E+001
              -7.443935E-001 -5.160147E+000 -7.671429E+001  8.333572E+001 -2.132338E+001 -2.613735E+001
 215.0000     -2.105864E+001 -2.836031E+001 -8.683540E+001  1.459351E+002 -7.199020E-001 -5.284680E+000
              -8.465049E+001  1.243998E+002 -2.692281E+001 -6.829328E+000 -7.650186E+001  8.537852E+001
              -7.457671E-001 -5.270994E+000 -7.773928E+001  9.327250E+001 -2.131411E+001 -2.674018E+001
 220.0000     -2.104482E+001 -2.906680E+001 -8.961905E+001  1.228357E+002 -7.202882E-001 -5.395996E+000
              -8.457236E+001  1.293628E+002 -2.690627E+001 -6.771652E+000 -7.612477E+001  9.104497E+001
              -7.459372E-001 -5.386861E+000 -7.676160E+001  9.456743E+001 -2.128517E+001 -2.723162E+001
 225.0000     -2.103006E+001 -2.970924E+001 -8.481265E+001  1.216138E+002 -7.223865E-001 -5.504874E+000
              -8.794836E+001  1.270711E+002 -2.689977E+001 -6.916175E+000 -7.741278E+001  9.015182E+001
              -7.468299E-001 -5.501861E+000 -7.617062E+001  9.074134E+001 -2.126268E+001 -2.787577E+001
 230.0000     -2.104136E+001 -3.032771E+001 -8.480037E+001  1.481560E+002 -7.223158E-001 -5.616023E+000
              -8.999741E+001  1.074766E+002 -2.690022E+001 -6.962732E+000 -7.559558E+001  8.750141E+001
              -7.451594E-001 -5.612839E+000 -7.632319E+001  1.002221E+002 -2.124388E+001 -2.828261E+001
 235.0000     -2.102434E+001 -3.090084E+001 -9.011639E+001  1.236859E+002 -7.222947E-001 -5.735960E+000
              -8.497361E+001  1.273128E+002 -2.689078E+001 -7.084209E+000 -7.630817E+001  9.232404E+001
              -7.468167E-001 -5.727858E+000 -7.560019E+001  9.242638E+001 -2.122518E+001 -2.890525E+001
 240.0000     -2.102833E+001 -3.155401E+001 -8.362823E+001  1.423123E+002 -7.248886E-001 -5.841973E+000
              -8.685170E+001  1.114970E+002 -2.689172E+001 -7.215069E+000 -7.557851E+001  9.227936E+001
              -7.474558E-001 -5.839506E+000 -7.820415E+001  9.582974E+001 -2.119851E+001 -2.929413E+001
 245.0000     -2.102828E+001 -3.216322E+001 -8.458096E+001  9.881471E+001 -7.258879E-001 -5.958512E+000
              -8.704033E+001  1.373846E+002 -2.688255E+001 -7.289985E+000 -7.678792E+001  8.678891E+001
              -7.476715E-001 -5.948883E+000 -7.558769E+001  9.237196E+001 -2.116428E+001 -2.974186E+001
 250.0000     -2.102072E+001 -3.280602E+001 -8.942377E+001  1.634438E+002 -7.275747E-001 -6.062057E+000
              -8.425149E+001  1.347025E+002 -2.688104E+001 -7.581286E+000 -7.618451E+001  9.585579E+001
              -7.475799E-001 -6.067492E+000 -7.623997E+001  8.074668E+001 -2.113335E+001 -3.025625E+001
 255.0000     -2.099865E+001 -3.343219E+001 -8.754871E+001  1.194418E+002 -7.296665E-001 -6.183853E+000
              -8.587326E+001  1.506315E+002 -2.687105E+001 -7.862242E+000 -7.586786E+001  9.343195E+001
              -7.497982E-001 -6.170845E+000 -7.567628E+001  9.139865E+001 -2.110570E+001 -3.069561E+001
 260.0000     -2.096313E+001 -3.401001E+001 -8.507761E+001  1.567440E+002 -7.295104E-001 -6.298127E+000
              -8.442435E+001  1.306485E+002 -2.686214E+001 -8.052467E+000 -7.599044E+001  9.601060E+001
              -7.484472E-001 -6.284733E+000 -7.699704E+001  9.784806E+001 -2.106954E+001 -3.118534E+001
 265.0000     -2.092040E+001 -3.465463E+001 -8.289066E+001  1.107071E+002 -7.292433E-001 -6.413459E+000
              -8.675979E+001  1.679383E+002 -2.683592E+001 -8.425429E+000 -7.504624E+001  8.447229E+001
              -7.479142E-001 -6.393947E+000 -7.459256E+001  9.050838E+001 -2.104668E+001 -3.164129E+001
 270.0000     -2.088393E+001 -3.514715E+001 -8.344686E+001  1.299500E+002 -7.307671E-001 -6.525424E+000
              -8.564001E+001  1.425337E+002 -2.681426E+001 -8.658260E+000 -7.433282E+001  9.521089E+001
              -7.481856E-001 -6.499307E+000 -7.474891E+001  9.598742E+001 -2.101237E+001 -3.224685E+001
 275.0000     -2.082217E+001 -3.584987E+001 -8.312537E+001  1.135760E+002 -7.320992E-001 -6.638905E+000
              -8.486090E+001  1.462092E+002 -2.677839E+001 -8.968557E+000 -7.562939E+001  9.784167E+001
