!Created: 04-04-2014 at 11:07:18
!MODEL: HSWA2-30DR+
!S/N: Unit 1
!RUN:QN1045128, D/C:1042
!All RF1 ON
!PORT EXTENSION HAS BEEN DONE
!PORT-1= PIN-8, PORT-2=PIN-3, PORT-3=PIN-13.
# MHZ S DB R 50
!Frequency        S11 dB  S11 DEG   S12 dB  S12 DEG   S13 dB  S13 DEG
!                 S21 dB  S21 DEG   S22 dB  S22 DEG   S23 dB  S23 DEG
!                 S31 dB  S31 DEG   S32 dB  S32 DEG   S33 dB  S33 DEG
   1.0000     -2.221239E+001  8.364692E-001 -7.398603E-001 -5.526772E-002 -1.007836E+002 -5.661496E+001
              -7.382013E-001 -1.037613E-001 -2.243067E+001  1.004919E+000 -1.106105E+002 -3.564544E+001
              -1.096693E+002  1.310276E+002 -1.063634E+002 -1.224759E+002 -2.770874E+001 -4.908458E-001
   2.0000     -2.211869E+001  7.579528E-001 -7.364603E-001 -8.617765E-002 -1.017512E+002 -2.032266E+001
              -7.405809E-001 -1.092407E-001 -2.237092E+001  7.202061E-001 -1.043962E+002  1.280147E+001
              -1.001616E+002 -1.030424E+002 -9.452493E+001 -1.713081E+001 -2.779467E+001 -1.632755E-001
   3.0000     -2.212050E+001 -4.541513E-001 -7.365640E-001 -1.096373E-001 -1.011289E+002 -8.104940E+001
              -7.369703E-001 -1.311508E-001 -2.233428E+001 -2.887629E-001 -1.129743E+002  1.306633E+002
              -9.971771E+001  1.443543E+002 -1.039800E+002  3.704707E+001 -2.777643E+001 -2.477046E-001
   4.0000     -2.213369E+001 -4.566416E-001 -7.344816E-001 -1.353192E-001 -1.049938E+002  5.332523E+001
              -7.329953E-001 -1.629543E-001 -2.231670E+001 -2.180650E-001 -1.029085E+002  6.708255E+001
              -1.140824E+002  1.423303E+002 -1.147858E+002 -1.160539E+002 -2.775924E+001 -3.513369E-001
   5.0000     -2.212097E+001 -6.897986E-001 -7.314126E-001 -1.547110E-001 -1.036183E+002 -1.458972E+002
              -7.323507E-001 -1.931310E-001 -2.229640E+001 -4.127617E-001 -1.035062E+002  6.169621E+001
              -1.011621E+002  4.829194E+001 -1.006869E+002 -6.081202E+001 -2.775450E+001 -3.870170E-001
   6.0000     -2.213457E+001 -6.494557E-001 -7.300755E-001 -1.683446E-001 -9.780510E+001  3.960963E+001
              -7.302371E-001 -2.188630E-001 -2.225452E+001 -7.159798E-001 -1.111942E+002  1.398658E+002
              -9.660158E+001 -1.688681E+002 -9.326041E+001  6.819654E+000 -2.773711E+001 -5.109084E-001
   7.0000     -2.211820E+001 -8.053851E-001 -7.288602E-001 -2.081956E-001 -9.595394E+001 -1.853488E+001
              -7.289918E-001 -2.467374E-001 -2.225080E+001 -9.385760E-001 -1.073873E+002 -1.718709E+001
              -1.006555E+002  8.534339E+001 -9.782787E+001  5.846417E+001 -2.773629E+001 -5.385273E-001
   8.0000     -2.212019E+001 -9.791650E-001 -7.273942E-001 -2.474162E-001 -1.059716E+002  9.764395E+001
              -7.295759E-001 -2.743380E-001 -2.223367E+001 -9.094871E-001 -9.913070E+001  8.409960E+001
              -1.048831E+002 -1.457432E+001 -1.091336E+002  9.361519E+001 -2.771896E+001 -5.762936E-001
   9.0000     -2.208522E+001 -1.147710E+000 -7.274706E-001 -2.797787E-001 -1.087994E+002  1.070145E+002
              -7.287638E-001 -3.017915E-001 -2.219932E+001 -9.775359E-001 -9.941991E+001  1.165333E+002
              -9.802364E+001  1.669310E+002 -1.050933E+002  1.778559E+002 -2.771893E+001 -5.760337E-001
  10.0000     -2.196036E+001 -3.188089E-003 -7.263402E-001 -2.730300E-001 -9.761120E+001 -9.613707E+000
              -7.269321E-001 -3.199968E-001 -2.210452E+001  3.205485E-001 -1.013088E+002 -9.985402E+001
              -9.181170E+001  1.065636E+002 -9.926256E+001  1.309827E+002 -2.777641E+001 -1.531159E+000
  15.0000     -2.193759E+001 -1.044876E+000 -7.246585E-001 -4.227829E-001 -9.393314E+001 -1.668931E+002
              -7.250417E-001 -4.718441E-001 -2.207921E+001 -9.841784E-001 -9.779155E+001 -1.510812E+002
              -8.999994E+001  1.469589E+002 -9.442912E+001  6.700917E+001 -2.772618E+001 -1.576750E+000
  20.0000     -2.201986E+001 -2.078082E+000 -7.233952E-001 -5.682098E-001 -9.666354E+001  1.721754E+002
              -7.250121E-001 -6.087108E-001 -2.215467E+001 -1.595951E+000 -9.723902E+001  6.114064E+001
              -9.325342E+001  7.565940E+001 -9.572229E+001  7.028194E+001 -2.769612E+001 -1.750019E+000
  25.0000     -2.204346E+001 -2.842658E+000 -7.220920E-001 -7.142037E-001 -9.447106E+001  1.758558E+002
              -7.227942E-001 -7.516076E-001 -2.217906E+001 -2.414174E+000 -8.914700E+001  8.507413E+001
              -9.860295E+001 -1.451391E+002 -9.414180E+001  4.569130E+001 -2.768656E+001 -2.002373E+000
  30.0000     -2.199981E+001 -3.443377E+000 -7.197447E-001 -8.464357E-001 -9.557647E+001 -1.388762E+002
              -7.207458E-001 -8.882017E-001 -2.213904E+001 -3.201433E+000 -1.028039E+002  5.901244E+001
              -1.049859E+002 -2.545796E+001 -9.762138E+001  3.096610E+001 -2.767621E+001 -2.366166E+000
  35.0000     -2.198407E+001 -4.088658E+000 -7.186700E-001 -9.797474E-001 -9.932773E+001  9.982887E+001
              -7.199163E-001 -1.018775E+000 -2.215003E+001 -3.620371E+000 -9.391565E+001  7.826769E+001
              -8.920419E+001  1.203798E+002 -8.927471E+001  7.662898E+001 -2.765868E+001 -2.653833E+000
  40.0000     -2.197518E+001 -4.768609E+000 -7.171776E-001 -1.116339E+000 -9.301509E+001  9.752143E+001
              -7.190180E-001 -1.150653E+000 -2.214382E+001 -4.171864E+000 -9.190922E+001  8.312492E+001
              -9.745596E+001  1.310930E+002 -9.313581E+001  8.934440E+001 -2.763963E+001 -2.946811E+000
  45.0000     -2.190908E+001 -5.502648E+000 -7.150624E-001 -1.238781E+000 -1.006071E+002 -1.450275E+002
              -7.174373E-001 -1.289546E+000 -2.207327E+001 -4.896533E+000 -9.795284E+001  1.090041E+002
              -9.873207E+001 -8.387665E+001 -8.792733E+001  1.064531E+002 -2.763264E+001 -3.275759E+000
  50.0000     -2.186476E+001 -6.476504E+000 -7.140484E-001 -1.376935E+000 -8.779070E+001  1.208379E+002
              -7.170212E-001 -1.406943E+000 -2.202381E+001 -5.770735E+000 -8.948545E+001  1.173311E+002
              -8.952242E+001  1.571641E+002 -8.707892E+001  8.567359E+001 -2.762298E+001 -3.551717E+000
  55.0000     -2.182787E+001 -7.045319E+000 -7.130890E-001 -1.509052E+000 -9.004676E+001  1.007121E+002
              -7.139931E-001 -1.547707E+000 -2.198551E+001 -6.430869E+000 -8.898405E+001  1.120598E+002
              -1.029743E+002  5.197479E+001 -8.571951E+001  6.573715E+001 -2.759174E+001 -3.888530E+000
  60.0000     -2.184920E+001 -7.725651E+000 -7.126654E-001 -1.647755E+000 -9.504204E+001  3.003011E+001
              -7.143107E-001 -1.681424E+000 -2.197362E+001 -7.278217E+000 -8.597480E+001  6.361666E+001
              -9.398613E+001  8.853430E+001 -8.609570E+001  5.897881E+001 -2.755818E+001 -4.244202E+000
  65.0000     -2.183455E+001 -8.391880E+000 -7.143978E-001 -1.785513E+000 -9.302359E+001  1.115102E+002
              -7.155214E-001 -1.816443E+000 -2.197553E+001 -7.982070E+000 -8.558989E+001  9.297142E+001
              -9.095293E+001  1.027935E+002 -8.684141E+001  8.243999E+001 -2.754625E+001 -4.553913E+000
  70.0000     -2.183736E+001 -9.051044E+000 -7.130660E-001 -1.905280E+000 -8.946113E+001  5.794472E+001
              -7.147204E-001 -1.949619E+000 -2.197742E+001 -8.666822E+000 -8.624580E+001  8.143649E+001
              -9.385728E+001 -1.438927E+001 -9.794157E+001  7.139898E+001 -2.751844E+001 -4.795274E+000
  75.0000     -2.182759E+001 -9.966372E+000 -7.123732E-001 -2.034271E+000 -1.127369E+002  1.664155E+002
              -7.144859E-001 -2.073626E+000 -2.196699E+001 -9.239090E+000 -9.273769E+001  1.073766E+002
              -1.127247E+002 -9.842922E+001 -8.768368E+001  1.074956E+002 -2.749113E+001 -5.065872E+000
  80.0000     -2.180250E+001 -1.061421E+001 -7.115529E-001 -2.165753E+000 -9.420205E+001  1.455294E+002
              -7.149655E-001 -2.196573E+000 -2.196246E+001 -9.947120E+000 -8.437057E+001  9.834425E+001
              -9.005933E+001  1.528333E+002 -8.449353E+001  8.922674E+001 -2.746223E+001 -5.274399E+000
  85.0000     -2.178174E+001 -1.126944E+001 -7.118694E-001 -2.295013E+000 -1.003462E+002 -4.095611E+001
              -7.138106E-001 -2.317571E+000 -2.192221E+001 -1.051079E+001 -8.745621E+001  8.451244E+001
              -9.377961E+001  6.738248E+000 -8.453391E+001  6.803976E+001 -2.742770E+001 -5.549182E+000
  90.0000     -2.174634E+001 -1.192726E+001 -7.111942E-001 -2.423115E+000 -9.186548E+001  1.074204E+002
              -7.142069E-001 -2.448861E+000 -2.191250E+001 -1.095433E+001 -8.676157E+001  1.026589E+002
              -8.914948E+001  1.671510E+002 -8.305103E+001  8.538647E+001 -2.740187E+001 -5.692818E+000
  95.0000     -2.171707E+001 -1.245333E+001 -7.118473E-001 -2.558715E+000 -8.797932E+001  1.165000E+002
              -7.151746E-001 -2.565006E+000 -2.190146E+001 -1.137118E+001 -8.420788E+001  9.910603E+001
              -8.734802E+001  1.407624E+002 -8.075641E+001  9.264851E+001 -2.736438E+001 -5.909364E+000
 100.0000     -2.169379E+001 -1.299021E+001 -7.124693E-001 -2.672930E+000 -9.012221E+001  8.813749E+001
              -7.162806E-001 -2.695966E+000 -2.187236E+001 -1.198325E+001 -8.277077E+001  8.149548E+001
              -9.297939E+001  9.416685E+001 -8.199984E+001  7.575708E+001 -2.733460E+001 -6.099292E+000
 105.0000     -2.166130E+001 -1.348755E+001 -7.120746E-001 -2.795680E+000 -9.486410E+001  6.475797E+001
              -7.144765E-001 -2.815714E+000 -2.185835E+001 -1.235190E+001 -8.245159E+001  7.570464E+001
              -9.326355E+001  8.531162E+001 -8.581680E+001  9.040484E+001 -2.731457E+001 -6.353512E+000
 110.0000     -2.163268E+001 -1.401009E+001 -7.111170E-001 -2.916921E+000 -1.027830E+002  1.068548E+002
              -7.137349E-001 -2.938464E+000 -2.182699E+001 -1.285322E+001 -8.470376E+001  1.031187E+002
              -1.104973E+002 -1.792579E+002 -8.279803E+001  8.580857E+001 -2.729935E+001 -6.607711E+000
 115.0000     -2.160571E+001 -1.468635E+001 -7.123519E-001 -3.043503E+000 -9.531583E+001  1.009095E+002
              -7.149628E-001 -3.072640E+000 -2.181124E+001 -1.360067E+001 -8.303948E+001  8.567726E+001
              -9.462546E+001  1.643678E+002 -8.200085E+001  8.793880E+001 -2.727411E+001 -6.678330E+000
 120.0000     -2.158933E+001 -1.536756E+001 -7.114425E-001 -3.169026E+000 -9.306561E+001  8.526919E+001
              -7.143127E-001 -3.194719E+000 -2.178232E+001 -1.423062E+001 -8.194844E+001  8.519889E+001
              -9.058508E+001  1.091506E+002 -8.488290E+001  8.188573E+001 -2.725488E+001 -6.820230E+000
 125.0000     -2.156007E+001 -1.607307E+001 -7.120773E-001 -3.290294E+000 -8.735614E+001  1.043081E+002
              -7.124607E-001 -3.317876E+000 -2.178782E+001 -1.488121E+001 -8.271754E+001  9.088268E+001
              -8.974561E+001  5.234354E+001 -8.172580E+001  8.158137E+001 -2.723523E+001 -7.006606E+000
 130.0000     -2.156116E+001 -1.674138E+001 -7.125024E-001 -3.413588E+000 -9.554202E+001  1.635517E+002
              -7.118850E-001 -3.447458E+000 -2.181583E+001 -1.559692E+001 -8.298696E+001  8.843272E+001
              -9.617381E+001 -1.587567E+002 -8.182150E+001  9.808398E+001 -2.720708E+001 -7.274697E+000
 135.0000     -2.157026E+001 -1.746062E+001 -7.121797E-001 -3.531412E+000 -9.046303E+001 -1.621664E+002
              -7.135621E-001 -3.572638E+000 -2.187479E+001 -1.642034E+001 -8.404765E+001  1.066043E+002
              -9.298995E+001  9.875387E+001 -8.250620E+001  9.704490E+001 -2.718371E+001 -7.483530E+000
 140.0000     -2.157524E+001 -1.830964E+001 -7.125617E-001 -3.667902E+000 -9.451444E+001  8.234795E+001
              -7.142411E-001 -3.699417E+000 -2.193696E+001 -1.736683E+001 -8.230196E+001  8.607269E+001
              -8.792010E+001  1.229608E+002 -8.215655E+001  7.584119E+001 -2.714732E+001 -7.683539E+000
 145.0000     -2.158159E+001 -1.902570E+001 -7.138392E-001 -3.779548E+000 -9.686791E+001  1.229635E+002
              -7.167546E-001 -3.826915E+000 -2.198226E+001 -1.817244E+001 -8.064902E+001  9.541387E+001
              -9.301191E+001  1.173886E+002 -8.062871E+001  8.806337E+001 -2.712408E+001 -7.959418E+000
 150.0000     -2.155928E+001 -1.979643E+001 -7.152608E-001 -3.897174E+000 -8.923830E+001  1.649261E+002
              -7.165211E-001 -3.950903E+000 -2.200454E+001 -1.905194E+001 -8.153268E+001  9.050305E+001
              -8.992075E+001  5.463351E+001 -7.832473E+001  9.235730E+001 -2.709686E+001 -8.260119E+000
 155.0000     -2.151230E+001 -2.067989E+001 -7.145598E-001 -4.030791E+000 -8.631498E+001  1.292045E+002
              -7.193282E-001 -4.069463E+000 -2.197655E+001 -1.989245E+001 -7.957558E+001  9.961069E+001
              -8.338412E+001  1.434325E+002 -7.916797E+001  9.678951E+001 -2.707213E+001 -8.356665E+000
 160.0000     -2.149914E+001 -2.144049E+001 -7.159173E-001 -4.155795E+000 -8.544806E+001  1.009266E+002
              -7.184790E-001 -4.193155E+000 -2.192999E+001 -2.042728E+001 -7.924247E+001  9.626225E+001
              -8.374504E+001  1.169055E+002 -8.053571E+001  8.777293E+001 -2.703504E+001 -8.621819E+000
 165.0000     -2.144010E+001 -2.230909E+001 -7.169343E-001 -4.280296E+000 -8.836612E+001  1.016747E+002
              -7.190311E-001 -4.314488E+000 -2.187827E+001 -2.072832E+001 -8.063886E+001  7.906435E+001
              -8.310849E+001  9.597528E+001 -7.784161E+001  9.049547E+001 -2.699794E+001 -8.806468E+000
 170.0000     -2.138020E+001 -2.301095E+001 -7.178708E-001 -4.404352E+000 -8.768864E+001  1.461976E+002
              -7.184264E-001 -4.431934E+000 -2.180262E+001 -2.111950E+001 -8.069092E+001  8.997164E+001
              -8.509080E+001  1.166563E+002 -7.999461E+001  1.020343E+002 -2.697473E+001 -8.915243E+000
 175.0000     -2.131924E+001 -2.373314E+001 -7.195459E-001 -4.537663E+000 -8.623565E+001  1.181199E+002
              -7.189572E-001 -4.548224E+000 -2.173182E+001 -2.154231E+001 -7.910992E+001  9.259631E+001
              -8.535583E+001  1.121299E+002 -8.005109E+001  8.351110E+001 -2.693780E+001 -9.055063E+000
 180.0000     -2.127180E+001 -2.431480E+001 -7.193853E-001 -4.653361E+000 -8.364520E+001  1.308169E+002
              -7.184118E-001 -4.674501E+000 -2.167732E+001 -2.175631E+001 -7.865289E+001  9.240446E+001
              -9.313863E+001  1.424878E+002 -8.068988E+001  9.841582E+001 -2.691940E+001 -9.205377E+000
 185.0000     -2.121314E+001 -2.500550E+001 -7.201126E-001 -4.781315E+000 -8.813007E+001  1.393323E+002
              -7.181238E-001 -4.796202E+000 -2.162751E+001 -2.230698E+001 -7.925269E+001  9.236844E+001
              -9.426100E+001  1.660025E+002 -7.897869E+001  1.002289E+002 -2.689558E+001 -9.316415E+000
 190.0000     -2.118863E+001 -2.539127E+001 -7.190945E-001 -4.894800E+000 -8.663024E+001  1.295454E+002
              -7.193972E-001 -4.915182E+000 -2.159376E+001 -2.282539E+001 -7.716669E+001  8.314451E+001
              -9.008302E+001  1.008784E+002 -7.749168E+001  1.005848E+002 -2.686408E+001 -9.493627E+000
 195.0000     -2.115027E+001 -2.586749E+001 -7.218162E-001 -5.026676E+000 -8.303374E+001  1.206052E+002
              -7.202839E-001 -5.042047E+000 -2.158429E+001 -2.354787E+001 -7.681214E+001  9.212508E+001
              -8.536724E+001  1.146644E+002 -7.768136E+001  9.169627E+001 -2.684420E+001 -9.578393E+000
 200.0000     -2.113095E+001 -2.636292E+001 -7.208057E-001 -5.141504E+000 -8.464208E+001  1.169224E+002
              -7.207154E-001 -5.159356E+000 -2.157110E+001 -2.405108E+001 -7.654149E+001  9.029987E+001
              -9.034908E+001  8.245241E+001 -7.868164E+001  8.402209E+001 -2.683168E+001 -9.746264E+000
 205.0000     -2.110556E+001 -2.687094E+001 -7.211005E-001 -5.256376E+000 -8.256266E+001  1.269292E+002
              -7.219331E-001 -5.289454E+000 -2.156261E+001 -2.479047E+001 -7.656488E+001  9.824953E+001
              -8.215413E+001  1.377668E+002 -7.869726E+001  8.760052E+001 -2.680034E+001 -9.848470E+000
 210.0000     -2.108493E+001 -2.735577E+001 -7.223402E-001 -5.379016E+000 -8.303735E+001  1.196828E+002
              -7.231030E-001 -5.411319E+000 -2.156040E+001 -2.550214E+001 -7.769594E+001  8.503909E+001
              -8.455766E+001  1.413278E+002 -7.837668E+001  9.000388E+001 -2.678094E+001 -1.001797E+001
 215.0000     -2.107521E+001 -2.780698E+001 -7.237269E-001 -5.493393E+000 -8.693482E+001  1.234322E+002
              -7.242019E-001 -5.526986E+000 -2.155255E+001 -2.605251E+001 -7.811784E+001  9.170547E+001
              -8.402445E+001  1.261715E+002 -7.828080E+001  8.553259E+001 -2.675657E+001 -1.021105E+001
 220.0000     -2.103303E+001 -2.828869E+001 -7.241433E-001 -5.606109E+000 -8.390228E+001  1.382259E+002
              -7.242138E-001 -5.638512E+000 -2.153004E+001 -2.653329E+001 -7.763707E+001  9.696329E+001
              -8.670028E+001  1.346329E+002 -7.923631E+001  1.002764E+002 -2.675058E+001 -1.029912E+001
 225.0000     -2.103206E+001 -2.874751E+001 -7.246086E-001 -5.720691E+000 -8.675784E+001  1.397558E+002
              -7.263072E-001 -5.744777E+000 -2.151181E+001 -2.711993E+001 -7.712642E+001  9.182371E+001
              -8.452356E+001  1.086694E+002 -7.680395E+001  8.182523E+001 -2.673042E+001 -1.054710E+001
 230.0000     -2.100624E+001 -2.925703E+001 -7.246838E-001 -5.843469E+000 -8.799341E+001  1.346566E+002
              -7.258673E-001 -5.872940E+000 -2.150105E+001 -2.750056E+001 -7.765157E+001  8.505437E+001
              -8.444784E+001  1.345734E+002 -7.587061E+001  8.600922E+001 -2.670980E+001 -1.076568E+001
 235.0000     -2.099009E+001 -2.972968E+001 -7.253294E-001 -5.946877E+000 -8.548207E+001  1.426737E+002
              -7.253426E-001 -5.997426E+000 -2.149041E+001 -2.806627E+001 -7.663036E+001  8.708091E+001
              -8.257240E+001  1.350003E+002 -7.644272E+001  8.731271E+001 -2.669030E+001 -1.096375E+001
 240.0000     -2.096121E+001 -3.025919E+001 -7.259021E-001 -6.070655E+000 -8.510832E+001  1.314747E+002
              -7.281314E-001 -6.107417E+000 -2.147304E+001 -2.844254E+001 -7.703801E+001  8.753413E+001
              -8.608568E+001  1.043338E+002 -7.541225E+001  8.705460E+001 -2.666938E+001 -1.117114E+001
 245.0000     -2.094357E+001 -3.081146E+001 -7.270588E-001 -6.181983E+000 -8.453191E+001  1.494374E+002
              -7.277400E-001 -6.219316E+000 -2.144770E+001 -2.889110E+001 -7.815753E+001  9.961623E+001
              -8.396514E+001  1.245463E+002 -7.672654E+001  9.723170E+001 -2.664815E+001 -1.142105E+001
 250.0000     -2.089242E+001 -3.126681E+001 -7.269789E-001 -6.307473E+000 -8.391597E+001  1.357865E+002
              -7.292339E-001 -6.335061E+000 -2.142912E+001 -2.946610E+001 -7.559032E+001  9.539617E+001
              -8.447385E+001  1.259890E+002 -7.632796E+001  9.422897E+001 -2.662474E+001 -1.160879E+001
 255.0000     -2.087347E+001 -3.187535E+001 -7.266245E-001 -6.418995E+000 -8.185640E+001  1.466486E+002
              -7.305054E-001 -6.459939E+000 -2.140450E+001 -3.000892E+001 -7.601929E+001  9.965406E+001
              -8.378751E+001  1.555626E+002 -7.666388E+001  9.411369E+001 -2.659534E+001 -1.180631E+001
 260.0000     -2.084104E+001 -3.253875E+001 -7.273082E-001 -6.539568E+000 -8.242266E+001  1.269159E+002
              -7.318723E-001 -6.569780E+000 -2.138477E+001 -3.050536E+001 -7.493003E+001  8.939706E+001
              -8.197237E+001  1.221669E+002 -7.485149E+001  8.646114E+001 -2.655394E+001 -1.203548E+001
 265.0000     -2.081380E+001 -3.300085E+001 -7.298381E-001 -6.665070E+000 -8.281562E+001  1.393715E+002
              -7.318910E-001 -6.689109E+000 -2.135837E+001 -3.112436E+001 -7.620304E+001  9.542562E+001
              -8.432985E+001  1.287473E+002 -7.753700E+001  9.869259E+001 -2.653274E+001 -1.233509E+001
 270.0000     -2.077637E+001 -3.376621E+001 -7.300165E-001 -6.778031E+000 -8.270494E+001  1.404168E+002
              -7.327810E-001 -6.807707E+000 -2.133734E+001 -3.172856E+001 -7.585999E+001  9.615177E+001
              -8.318437E+001  1.338515E+002 -7.468008E+001  8.713642E+001 -2.648746E+001 -1.250696E+001
 275.0000     -2.074715E+001 -3.423545E+001 -7.304019E-001 -6.892340E+000 -8.153647E+001  1.557304E+002
              -7.332448E-001 -6.932137E+000 -2.130252E+001 -3.234797E+001 -7.610831E+001  9.369393E+001
