!Mini-Circuits Laboratory
!S-Parameters
!Model: HXG-122+
!Run / Lot / Date Code: NA /  / N/A
!Fixture: TB-622+
!Network Analyzer: ;  Serial number: 71013
!Date: 8/3/2011 at 8:38:52 AM
!S/N: Unit# 1
!Tested with: 
!V=5V; Temp=25 DegC
# Hz  S  dB  R  50
!Frequency    S11 dB        S11 Deg       S21 dB        S21 Deg       S12 dB        S12 Deg       S22 dB        S22 Deg       
10000000      -5.4295921    -20.0288906   20.1997108    169.7391052   -25.7748203   25.9680595    -8.1118574    -24.2787800   
15000000      -5.9523220    -28.5670109   19.7876892    167.8755951   -24.9585896   27.9175892    -8.5837412    -37.1035995   
20000000      -7.0481720    -36.3642807   19.3873501    164.7247009   -23.7666206   25.8654900    -9.7628288    -48.4018593   
25000000      -8.0675220    -42.5429802   18.9627304    163.0825043   -23.0777702   22.1840992    -10.7119102   -57.8834610   
30000000      -8.8378448    -45.8844795   18.5732403    162.8495026   -22.5295696   20.5569992    -11.3471899   -63.7338409   
35000000      -9.6056747    -48.4813385   18.2359409    162.7519989   -22.1719494   18.7951908    -12.0825901   -69.0245132   
40000000      -10.5111103   -51.4931183   17.9754791    162.4904022   -21.8337097   16.1166992    -12.8189602   -74.8854065   
45000000      -11.2791796   -53.5470886   17.7522602    162.5191040   -21.6646595   14.3678904    -13.4404497   -79.3817902   
50000000      -12.2113104   -53.4475708   17.5517998    162.6647949   -21.5865803   12.1128101    -13.9838400   -82.4962921   
55000000      -12.5828199   -56.0476494   17.3925495    163.1441956   -21.3652496   11.9770603    -14.4409103   -86.7197037   
60000000      -13.2096205   -56.1265984   17.2641392    163.2115021   -21.1461201   10.0886402    -14.9899302   -89.2772827   
65000000      -13.7982302   -57.4251709   17.1537704    163.3659058   -21.1816597   9.7308207     -15.2955303   -92.8354034   
70000000      -14.3181000   -57.6061897   17.0666599    163.4821930   -21.1369991   8.4445972     -15.6448603   -95.0863800   
75000000      -14.8304901   -57.8225899   16.9806309    163.5301056   -21.0988598   7.7842412     -15.9394503   -97.4802017   
80000000      -15.2966299   -57.9280815   16.9157600    163.5579071   -21.0867996   7.0683470     -16.2040405   -99.7763901   
85000000      -15.7427301   -57.7388687   16.8583698    163.5549011   -21.0202007   6.0342550     -16.4707298   -101.5714035  
90000000      -16.1615601   -57.7284393   16.8049793    163.5218964   -20.9921398   5.4470482     -16.6929798   -103.4189987  
95000000      -16.5426903   -57.3489494   16.7658806    163.4629059   -20.9850693   4.8981051     -16.8660698   -105.1346970  
100000000     -16.8926697   -57.0607185   16.7254791    163.3450012   -20.9713306   4.0487399     -17.0267696   -106.7456970  
105000000     -17.2367897   -56.6010017   16.6958599    163.2366028   -20.9524708   3.7228241     -17.2261200   -107.9070969  
110000000     -17.5294094   -56.5465393   16.6718102    163.0599976   -20.9296303   3.1489251     -17.3532295   -109.1839981  
115000000     -17.8441105   -56.1343384   16.6442795    162.8856049   -20.8783894   2.4975080     -17.4566708   -110.3196030  
120000000     -18.1429596   -55.4251709   16.6185303    162.7590027   -20.8693199   1.9679700     -17.5779495   -111.3281021  
125000000     -18.4021606   -55.0297012   16.5940895    162.5662994   -20.8650398   1.5136950     -17.6537895   -112.3259964  
130000000     -18.7354107   -54.9145203   16.5731106    162.3843994   -20.9622593   1.3160590     -17.7721691   -112.7720032  
135000000     -18.9013805   -53.7725296   16.5597496    162.1714935   -20.8707809   0.7028329     -17.8240204   -113.9730988  
140000000     -19.0864601   -53.4255981   16.5412292    161.9443970   -20.8623199   0.4531733     -17.8594494   -114.5754013  
145000000     -19.3099194   -52.7177811   16.5277805    161.7102051   -20.8249493   -0.0603361    -17.9078503   -115.1893005  
150000000     -19.5707207   -51.9460106   16.5088596    161.5352936   -20.7911301   -0.3270509    -17.9666195   -115.6281967  
155000000     -19.7535496   -51.5799294   16.4920807    161.2543030   -20.7978001   -1.0256150    -17.9621391   -116.7768021  
160000000     -19.9652596   -50.9567909   16.4850807    161.0124969   -20.8367004   -1.1350510    -18.0179691   -116.8839035  
165000000     -20.1194992   -50.4008484   16.4732208    160.7216949   -20.8478699   -1.6681540    -18.0281105   -117.5510025  
170000000     -20.2608509   -49.7148895   16.4601402    160.4297943   -20.8305702   -1.8239239    -17.9959793   -118.1591034  
175000000     -20.4848404   -48.9924507   16.4508801    160.1468048   -20.8290195   -2.0504389    -18.0526009   -118.7031021  
180000000     -20.5480194   -48.2078400   16.4424191    159.8657990   -20.8221607   -2.3334019    -18.0378799   -118.9047012  
185000000     -20.6814709   -47.6111603   16.4340897    159.5697021   -20.8063908   -2.7534201    -18.0317802   -119.3096008  
190000000     -20.7818203   -46.7174911   16.4263706    159.2207947   -20.7906609   -2.9344130    -17.9809799   -119.4656982  
195000000     -20.9373703   -46.5452919   16.4179993    158.9447937   -20.8388691   -3.4566350    -17.9894199   -119.9328995  
200000000     -21.0401592   -45.5962715   16.4079895    158.6280060   -20.8094902   -3.7297370    -17.9705105   -120.0997009  
205000000     -21.1972904   -45.0902100   16.4004002    158.3003998   -20.8180103   -4.0074072    -17.9592800   -120.6867981  
210000000     -21.2583294   -44.3852615   16.3893700    157.9909973   -20.7947693   -4.1465421    -17.9394093   -121.0043030  
215000000     -21.2857304   -44.0025406   16.3845596    157.6289978   -20.7635593   -4.5959210    -17.8804302   -121.0981979  
220000000     -21.3364105   -43.2492409   16.3806095    157.3249969   -20.8088703   -5.1543579    -17.8768291   -121.2272034  
225000000     -21.3764992   -42.5986595   16.3719902    156.9969940   -20.7971191   -5.2059760    -17.8436794   -121.5036011  
230000000     -21.4881706   -42.3855705   16.3669605    156.6170044   -20.7963200   -5.3297820    -17.7395496   -121.7714996  
235000000     -21.5004005   -41.4787483   16.3578892    156.3023987   -20.7764893   -5.7372551    -17.7097492   -121.6444016  
240000000     -21.5714302   -41.4747009   16.3529301    155.9476013   -20.7776108   -5.9970369    -17.6349106   -121.8892975  
245000000     -21.5771008   -40.6777496   16.3469696    155.5917969   -20.7817097   -6.1704612    -17.6070900   -121.9893036  
250000000     -21.6891308   -39.9117813   16.3400593    155.2577972   -20.7849598   -6.7241139    -17.5868607   -121.9694977  
255000000     -21.7297802   -39.5698586   16.3310299    154.9203033   -20.7666702   -6.7072320    -17.5181694   -122.2145996  
260000000     -21.7308502   -39.3776588   16.3290100    154.5570068   -20.7817001   -7.0055542    -17.4499893   -122.5101013  
265000000     -21.6532192   -38.4043617   16.3239803    154.2312012   -20.7774296   -7.2722912    -17.4584408   -122.2345963  
270000000     -21.7575207   -37.7941818   16.3167095    153.8495941   -20.7929592   -7.5076170    -17.3808403   -122.6426010  
275000000     -21.7511292   -37.6444397   16.3139000    153.4432068   -20.7546997   -7.7331152    -17.3522301   -122.4868011  
280000000     -21.8054409   -37.0977592   16.3031197    153.1152039   -20.7637291   -7.9197030    -17.2459106   -122.9364014  
285000000     -21.7803001   -36.4655914   16.3013706    152.7642975   -20.7527504   -8.1418715    -17.2408104   -122.7752991  
290000000     -21.8263607   -35.9656906   16.2963104    152.3744965   -20.7842407   -8.3030853    -17.2134399   -122.7544022  
295000000     -21.8653793   -35.6216202   16.2828903    152.0021057   -20.7813396   -8.8885555    -17.0893898   -122.9716034  
300000000     -21.8243999   -35.1184196   16.2819901    151.6472931   -20.7817402   -9.1138334    -17.0461693   -123.1502991  
305000000     -21.8076000   -34.4887199   16.2784691    151.2868958   -20.7646694   -9.0462828    -17.0264397   -123.3863983  
310000000     -21.8567410   -34.6897202   16.2749901    150.9026031   -20.7710495   -9.5261431    -16.9218102   -123.5621033  
315000000     -21.7635002   -33.8891182   16.2712402    150.5296021   -20.7940006   -9.7966948    -16.8878002   -123.1595993  
320000000     -21.8098392   -33.8997116   16.2620792    150.1533051   -20.7907791   -9.9302578    -16.8410892   -123.6195984  
325000000     -21.7569008   -33.9103889   16.2576103    149.7859039   -20.7511692   -10.1136398   -16.7164307   -123.5248032  
330000000     -21.7822895   -33.2903290   16.2508602    149.3983002   -20.7894802   -10.5173502   -16.6857109   -123.7438965  
335000000     -21.7750301   -32.7573509   16.2416706    149.0081024   -20.8346901   -10.6204205   -16.6581192   -123.6118011  
340000000     -21.7559204   -32.7919006   16.2421207    148.6542969   -20.7853298   -10.6959000   -16.5622005   -123.8012009  
345000000     -21.6624603   -32.2360611   16.2362309    148.2765045   -20.8091908   -10.9723797   -16.5327606   -123.6857986  
350000000     -21.5540295   -31.7518291   16.2346001    147.9253998   -20.7632504   -11.3130999   -16.4290409   -123.7025986  
355000000     -21.5846100   -31.4140205   16.2250805    147.4801941   -20.7804604   -11.6198902   -16.3723392   -123.8079987  
360000000     -21.5482006   -31.6119003   16.2173309    147.1206970   -20.8245296   -11.5785599   -16.3292599   -124.0821991  
365000000     -21.5468998   -31.2502594   16.2146091    146.7416992   -20.7700291   -12.0185204   -16.2596207   -124.0849991  
370000000     -21.4892406   -30.9615307   16.2055397    146.3592987   -20.7934704   -12.2528801   -16.1863594   -124.1587982  
375000000     -21.4196091   -30.7614803   16.1991291    145.9835052   -20.7663403   -12.3152905   -16.1471806   -124.2185974  
380000000     -21.3995094   -30.6594696   16.1990395    145.5632935   -20.7876606   -12.4700298   -16.0685196   -124.0830002  
385000000     -21.3612900   -30.3922405   16.1954308    145.1889038   -20.7774792   -12.8709898   -16.0219002   -124.2345963  
390000000     -21.3422794   -30.5148602   16.1841297    144.7937012   -20.7838097   -12.8844004   -15.9397297   -124.5086975  
395000000     -21.3125706   -30.3273392   16.1812801    144.3990936   -20.7716408   -13.2277803   -15.9043598   -124.4665985  
400000000     -21.2203102   -30.0579205   16.1772194    144.0169983   -20.7283592   -13.4758196   -15.8253298   -124.5252991  
405000000     -21.1907806   -30.2338009   16.1697502    143.6351929   -20.7736492   -13.8082304   -15.7539701   -124.5556030  
410000000     -21.1529598   -29.5560493   16.1628799    143.2422943   -20.8124294   -13.8641100   -15.6764898   -124.6984024  
415000000     -21.0309601   -30.0455494   16.1588001    142.8406982   -20.7773895   -14.3587303   -15.6510000   -124.6983032  
420000000     -21.0251102   -29.5658703   16.1520309    142.4391022   -20.7601604   -14.3712301   -15.5848303   -124.7549973  
425000000     -20.9827194   -29.1416607   16.1502991    142.0484924   -20.7873497   -14.5594101   -15.5391302   -124.8737030  
430000000     -20.9323997   -29.6667805   16.1440506    141.6461945   -20.7604809   -14.6710300   -15.4678297   -125.2673035  
435000000     -20.8293896   -29.3192291   16.1332703    141.2864990   -20.7839394   -15.2418900   -15.4006901   -124.9598007  
440000000     -20.8234005   -28.9916706   16.1302605    140.8789978   -20.7786903   -15.5372200   -15.3661900   -125.1611023  
445000000     -20.6865101   -29.2324791   16.1248608    140.4976044   -20.7855797   -15.6902199   -15.2599602   -125.1752014  
450000000     -20.7032795   -29.4314499   16.1186600    140.0825043   -20.7756100   -15.5075798   -15.1927404   -125.3307037  
455000000     -20.6000309   -29.1812305   16.1137295    139.6708069   -20.7663307   -15.6785698   -15.1293497   -125.3599014  
460000000     -20.5735703   -28.7129707   16.1044292    139.2861023   -20.8067703   -16.1424599   -15.0931597   -125.5067978  
465000000     -20.5328503   -29.0987892   16.1012897    138.8923950   -20.7547703   -16.3616199   -15.0169897   -125.5520020  
470000000     -20.4532795   -29.0457993   16.0971603    138.4989929   -20.7728901   -16.7504101   -14.9579296   -125.5980988  
475000000     -20.3806591   -29.0995007   16.0898609    138.1031952   -20.7813892   -16.9606495   -14.8815203   -125.6925964  
480000000     -20.2597904   -29.0918903   16.0869904    137.7059937   -20.7961903   -16.9533806   -14.8373899   -125.6882019  
485000000     -20.2645092   -29.0072899   16.0775299    137.2778931   -20.7739697   -17.0864697   -14.7751999   -125.9897003  
490000000     -20.1329899   -29.1764507   16.0722904    136.9120026   -20.7760601   -17.5265293   -14.6970997   -125.9281998  
495000000     -20.0795498   -28.9087505   16.0647202    136.5274963   -20.7751694   -17.6055202   -14.6534405   -125.9424973  
500000000     -20.0548592   -29.0855408   16.0598106    136.1174011   -20.7729206   -17.7652607   -14.5959702   -126.0056000  
505000000     -19.9736595   -28.7390804   16.0544205    135.7106934   -20.7504807   -18.1073093   -14.5378103   -125.9745026  
510000000     -19.9386997   -29.3363400   16.0513191    135.2655945   -20.7961006   -18.3327103   -14.4637003   -126.2481995  
515000000     -19.8218002   -29.0970001   16.0422707    134.8887024   -20.8070793   -18.6870499   -14.4196396   -126.3843994  
520000000     -19.7868195   -29.2169304   16.0391598    134.4512939   -20.7923908   -18.7065392   -14.3580799   -126.3254013  
525000000     -19.7140903   -29.1820908   16.0282001    134.0675049   -20.7771606   -18.8413105   -14.3097696   -126.4805984  
530000000     -19.6243992   -29.3429794   16.0207291    133.6481934   -20.7983704   -19.0798893   -14.2223396   -126.5448990  
535000000     -19.5539894   -29.4503708   16.0228004    133.2861023   -20.7935696   -19.4021206   -14.1711197   -126.6241989  
540000000     -19.4834709   -29.3541698   16.0162601    132.8587036   -20.7642307   -19.3825703   -14.1160898   -126.7562027  
545000000     -19.4455605   -29.6339397   16.0064392    132.4447937   -20.7782497   -19.7860699   -14.0472603   -126.7443008  
550000000     -19.3231792   -29.8693008   15.9974899    132.0765076   -20.7931499   -20.0762901   -14.0071402   -126.7871017  
555000000     -19.2903500   -29.6166000   15.9927197    131.6828003   -20.7749901   -20.1433392   -13.9551296   -126.9240036  
560000000     -19.2105198   -29.9817505   15.9893799    131.2438965   -20.8055897   -20.4846096   -13.8623104   -127.1290970  
565000000     -19.1669903   -30.0965691   15.9794102    130.8621063   -20.7935696   -20.8392506   -13.8189497   -127.1555023  
570000000     -19.0819702   -30.0843506   15.9712296    130.4745026   -20.7812004   -20.7772999   -13.7604599   -127.4024963  
575000000     -19.0161896   -30.2121391   15.9638004    130.0630951   -20.7973309   -21.0373592   -13.7038097   -127.4105988  
580000000     -18.9121494   -30.0813999   15.9586496    129.6338043   -20.8164005   -21.3935699   -13.6575403   -127.4131012  
585000000     -18.8119106   -30.5810299   15.9559402    129.2516937   -20.7890301   -21.5014191   -13.5764599   -127.5122986  
590000000     -18.7651291   -30.5711708   15.9461002    128.8453979   -20.7994099   -21.6597195   -13.5233297   -127.5680008  
595000000     -18.7388306   -30.5443707   15.9383001    128.4382935   -20.7747097   -21.9411507   -13.4788599   -127.7257004  
600000000     -18.6211491   -30.8309307   15.9313297    128.0332031   -20.8162994   -21.9395809   -13.4109898   -127.8020020  
605000000     -18.5595608   -30.8992405   15.9243803    127.6233978   -20.7866993   -22.3435402   -13.3554201   -127.8323975  
610000000     -18.4997101   -31.2206593   15.9149904    127.2088013   -20.7922401   -22.4695396   -13.2878599   -128.0095978  
615000000     -18.3719292   -31.2532196   15.9086399    126.8327026   -20.7886906   -22.8701897   -13.2591896   -128.0503998  
620000000     -18.2876205   -31.5785503   15.9007597    126.4112015   -20.7830105   -22.8955803   -13.1850996   -128.2053986  
625000000     -18.2560406   -31.7645206   15.8966999    125.9943008   -20.7774105   -23.1063194   -13.1402903   -128.1864929  
630000000     -18.2120705   -31.8684101   15.8849802    125.5831985   -20.7887497   -23.4530602   -13.0939198   -128.2794037  
635000000     -18.0803604   -31.8540497   15.8799801    125.1959991   -20.8081493   -23.6381893   -13.0346804   -128.4555969  
640000000     -18.0031204   -32.1345215   15.8706503    124.7916031   -20.8066101   -23.8255501   -12.9813099   -128.5222931  
645000000     -17.9502106   -32.4544487   15.8672705    124.3643036   -20.7985001   -24.0396194   -12.9238701   -128.5415955  
650000000     -17.8787804   -32.8131218   15.8588800    123.9648972   -20.7941608   -24.3169403   -12.8482800   -128.7984009  
655000000     -17.7923908   -32.5531082   15.8442698    123.5759964   -20.8094902   -24.4203205   -12.8197403   -128.7357025  
660000000     -17.7205505   -33.0148010   15.8418999    123.1392975   -20.8256893   -24.6880894   -12.7592697   -128.9125977  
665000000     -17.6383095   -33.1357689   15.8287497    122.7413025   -20.8118992   -24.8942909   -12.6985197   -128.9266968  
670000000     -17.5548401   -33.4049416   15.8248396    122.3501968   -20.7775097   -25.0914097   -12.6630297   -129.1298981  
675000000     -17.5184498   -33.5855408   15.8188496    121.9285965   -20.8192196   -25.5769291   -12.6059904   -129.2933044  
680000000     -17.4328003   -33.8259392   15.8097401    121.5203018   -20.7914200   -25.6688004   -12.5304804   -129.2089996  
685000000     -17.3421402   -34.2172813   15.8013096    121.0959015   -20.8077106   -25.5704498   -12.4952898   -129.4539948  
690000000     -17.2525406   -34.2870102   15.7949495    120.7026978   -20.7902508   -26.0626297   -12.4172001   -129.3614044  
695000000     -17.1991901   -34.6124916   15.7833796    120.2944031   -20.8180008   -26.4099007   -12.3987503   -129.5641022  
700000000     -17.0779800   -34.8663406   15.7783098    119.8949966   -20.8080006   -26.2782898   -12.3247805   -129.5964050  
705000000     -17.0274506   -35.1088295   15.7721100    119.4674988   -20.8049107   -26.7916298   -12.2838802   -129.6143951  
710000000     -16.9486504   -35.2816811   15.7558098    119.0417023   -20.8093605   -26.9538994   -12.2397699   -129.8406982  
715000000     -16.8743801   -35.4522400   15.7513800    118.6751022   -20.8157501   -27.1498508   -12.1863899   -129.8659058  
720000000     -16.7782707   -35.8840714   15.7437601    118.2361984   -20.8178196   -27.2317600   -12.1364002   -129.9577026  
725000000     -16.7043800   -36.0265808   15.7382097    117.8102036   -20.8138599   -27.6345997   -12.0985699   -130.0223999  
730000000     -16.6463909   -36.2573700   15.7282896    117.4189987   -20.8031101   -27.7983398   -12.0367899   -130.2926025  
735000000     -16.5590706   -36.5527687   15.7210999    117.0090027   -20.8106098   -27.8771000   -11.9935102   -130.2241974  
740000000     -16.4964409   -36.7607803   15.7103300    116.5979004   -20.8172607   -28.1345596   -11.9471397   -130.3975983  
745000000     -16.4060497   -37.0253716   15.7027798    116.1781998   -20.8023701   -28.4098606   -11.8890200   -130.4282990  
750000000     -16.3133392   -37.3615608   15.6937799    115.7660980   -20.8198700   -28.6642494   -11.8556099   -130.5648041  
755000000     -16.2501602   -37.6625710   15.6854401    115.3638000   -20.7811298   -28.7940998   -11.7844296   -130.6280060  
760000000     -16.1801891   -37.9437103   15.6778202    114.9529037   -20.7999096   -28.9548492   -11.7502098   -130.7113037  
765000000     -16.0783806   -38.0199318   15.6685200    114.5488968   -20.8397999   -29.2591400   -11.7045603   -130.7700043  
770000000     -16.0153999   -38.4084587   15.6593504    114.1356964   -20.7884407   -29.4562092   -11.6581402   -130.8242950  
775000000     -15.9507198   -38.7506790   15.6483202    113.7029037   -20.8207703   -29.7064304   -11.6028204   -130.9980011  
