! Created with skrf (http://scikit-rf.org).
# Hz S RI R 50.0 
!freq ReS11 ImS11 ReS21 ImS21 ReS12 ImS12 ReS22 ImS22
5000000.0 -0.11919084529706694 0.04608754578315049 0.34148687617967705 -0.008226487898378406 0.34148252199060086 -0.00840528887278988 0.019647582312832257 0.028279696911877268
9990000.0 -0.11209174707385423 0.027760665690223126 0.3403534541897708 -0.02391922160398928 0.34073714647547637 -0.024065716649333505 0.024721319773343336 0.018007276940494244
14980000.0 -0.11067201151119249 0.022717701384160977 0.3387356842055744 -0.037456609961603 0.33872258874547284 -0.037574848736882285 0.026828876525384748 0.014975722375617907
19960000.0 -0.11020697404875565 0.021741624063616155 0.33666909963260255 -0.05031553406340173 0.3366427083319056 -0.05049180668655195 0.028336410133207295 0.013789993081347079
24950000.0 -0.10984230594820547 0.022247864188042085 0.3341704957154384 -0.06277980576991339 0.33414856107076385 -0.0628964494510452 0.02986208536730493 0.013408026057306113
29940000.0 -0.10952511887719724 0.02376021826256137 0.3312116100203453 -0.07512785881309203 0.33115908017049783 -0.07535906981073358 0.03139171352026392 0.013266835949163698
34930000.0 -0.10884285598880591 0.025609041418554843 0.3274660888182949 -0.08707079202428823 0.32778237840048163 -0.08739995025494604 0.03299444742463095 0.013270372512270147
39910000.0 -0.10780933552036716 0.02766067678059581 0.32363086852354334 -0.09906742695382051 0.3239690362646569 -0.09929464079917756 0.03477898825990834 0.013190464532719789
44900000.0 -0.10685236398265546 0.02975331946929492 0.31945399921155615 -0.1106208654220362 0.3197833180832202 -0.11085992792817233 0.03657734317006931 0.012988650153334851
50000000.0 -0.10567887571536017 0.03196672045715859 0.3147805865168615 -0.12222177018934682 0.3147805865168615 -0.12222177018934682 0.038453493925167365 0.012724723106875677
54880000.0 -0.10445627319351773 0.03416175261295873 0.3098966144905472 -0.13314209292947254 0.3097803081106871 -0.13341247801158218 0.04032918841947995 0.012322173974790605
59860000.0 -0.10308470600168151 0.03624119800985636 0.30448411314992974 -0.14418913414863235 0.3043833759517181 -0.14440166900512807 0.042235576345800926 0.01180033133637266
64849999.99999999 -0.10178631402919543 0.03834008129362356 0.2987060731392046 -0.1549668293323182 0.29865196131402416 -0.15507108797852137 0.04418272307673407 0.011081538655779762
69840000.0 -0.10032527653061124 0.04037118773649217 0.2925766426029852 -0.16546449670683078 0.2924610553027105 -0.16566871339666003 0.0460164146024441 0.01028588731162134
74830000.0 -0.09880568463628107 0.04240942236669533 0.28604884208065384 -0.17577202724514546 0.2859567688556529 -0.17592177796732755 0.04791387586560332 0.009304835780079344
79810000.0 -0.09727211460652094 0.04434996130633676 0.2789674722767891 -0.18541573515129528 0.2791267319305078 -0.18587298060365592 0.049802788634984455 0.008155519404924651
84800000.0 -0.09560256787914719 0.04617492367798953 0.2720881291980951 -0.19537117335901186 0.27191753210433156 -0.19560854062255606 0.05172114161488722 0.006901073694048937
89790000.0 -0.09395420608296286 0.04812018802163436 0.2644774144470322 -0.2049280010006635 0.2643700781475337 -0.2050664529536269 0.05354569662649164 0.005495631036109128
94770000.0 -0.09232284995269781 0.049918778751345705 0.25671920266547904 -0.21396629585254032 0.256532384120212 -0.2141902441187649 0.055322011363213026 0.003946121319629792
99760000.0 -0.09055699784596472 0.05161091335460552 0.24817312883811046 -0.2226730132972152 0.24842010092253902 -0.2229728835908271 0.05703848964621868 0.002231077967774968
104750000.0 -0.08866380043325998 0.05342212598827485 0.2399681309139765 -0.23149183327670927 0.23984688918473815 -0.23161744855809782 0.05874764317019088 0.0003896348373613549
109740000.0 -0.08691346376670539 0.054901957234785075 0.23100119932978197 -0.23937590585931776 0.23105807888418273 -0.23985338377557003 0.060301850837904174 -0.0016843832091380222
114730000.0 -0.08513417608841115 0.05656301135862029 0.22186208617401212 -0.24735617378331695 0.22211766143289 -0.24764111709760692 0.06182457528059092 -0.0038463419371312646
119710000.0 -0.0832620598067583 0.05806281599399021 0.21278269066791058 -0.2552085197291257 0.21278269066791058 -0.2552085197291257 0.06330810557299375 -0.006151640897606545
124700000.0 -0.08128651663632804 0.05942740168052743 0.20300346988287538 -0.26208810571783797 0.2031457170788941 -0.2624609467837899 0.06467531734340154 -0.00854912029788653
129690000.0 -0.07928647975785458 0.06075075938482451 0.19322865574766093 -0.2689061289972217 0.19331025894235568 -0.2693171508294478 0.06592164475652296 -0.011007846024741592
134680000.0 -0.07727344591746109 0.06201849712981652 0.1831304695018882 -0.2754248858894697 0.18334142766043834 -0.2757421631121196 0.0671001547818796 -0.013627290622147034
139660000.0 -0.07522668852604783 0.0632570480128746 0.17286336296283392 -0.2815355952451754 0.1730132974006114 -0.28189011254348206 0.06814601270560844 -0.01628495360303746
144650000.0 -0.07322500786792041 0.06437504298488517 0.1622438607961565 -0.2873498546498688 0.16238054625285334 -0.28770921403997585 0.06902643475854787 -0.01907787054253127
149640000.0 -0.07111260651180183 0.0655519178710521 0.15173739031523156 -0.2926060948477143 0.15180991933472884 -0.292996173567039 0.06984478837705806 -0.021901418029374082
154630000.0 -0.06906001643368305 0.0665973711771804 0.14075117094365056 -0.29762694649529225 0.14069922309856137 -0.29765150767563997 0.07042834833836402 -0.024732675545709924
159610000.0 -0.06691219335208382 0.06752224165440868 0.12986489339592522 -0.30212332679397463 0.12965393989378762 -0.3022139159598908 0.07089637869030092 -0.027712640669381432
164600000.0 -0.06476381891897338 0.06839011536333327 0.11862363079754264 -0.30630557689893795 0.11840976027369057 -0.30638831716452575 0.07124581769752834 -0.030816056226489086
169590000.0 -0.06273666277915219 0.06923745248935763 0.1072504239048083 -0.3100707466615037 0.10703392756838119 -0.3101455460139159 0.07137736713942859 -0.034014679007747226
174580000.0 -0.06053156382255967 0.06990419808596775 0.09576070533173932 -0.3134147867419345 0.09559658861397485 -0.31346488396548494 0.07137943695879874 -0.03730040636410366
179560000.0 -0.05851869647251721 0.07063648900964253 0.08418346791770992 -0.3159408673337681 0.08411481516940293 -0.3163489029422701 0.07120465405198037 -0.04054856064766438
184550000.0 -0.05627724642240193 0.0712337889294278 0.07246620681757311 -0.31844663759019104 0.0725496846658467 -0.3188134739579743 0.0707800855787029 -0.04386841170634274
189540000.0 -0.05420848744501164 0.07165047237396553 0.060902322868484446 -0.3204765340733304 0.06079045174647533 -0.3204977734694752 0.07032916245508943 -0.04724142060818299
194530000.0 -0.052014501849821856 0.0721198854499446 0.049173893882327846 -0.32210477158887607 0.049061455112754004 -0.3221219168918683 0.0695319914071693 -0.050777993106881546
199510000.0 -0.04991474379432518 0.07235554023641795 0.037294793022806624 -0.3233179100067222 0.03695619491191495 -0.3233567877366446 0.06864433542323757 -0.05409540692220513
204500000.0 -0.04780093312721374 0.07268699844110625 0.025279795063009453 -0.32410288934679077 0.02533636130303225 -0.3240984722538631 0.06756777642159381 -0.05764717482780099
209490000.0 -0.04558594765469765 0.07292444121832918 0.013540955643465712 -0.32443078176922047 0.013386485127193816 -0.32481156527640037 0.06630044702259517 -0.06109464695245441
214480000.0 -0.043506276022502996 0.07304041335230438 0.0016962764704633016 -0.32396198158328393 0.0014151940637915693 -0.3243365298699548 0.06490374610786696 -0.06451973777406701
219460000.0 -0.04137183868663587 0.07315426512730885 -0.010164322397027047 -0.3234339829939013 -0.01033367063346818 -0.3234286166317522 0.06327061151807495 -0.06787317025139498
224450000.0 -0.03938180243708046 0.07326242792861923 -0.0218151426674081 -0.3224842964742324 -0.022152835409763375 -0.32246127489264187 0.06148662041306905 -0.07120780581149454
229440000.0 -0.03728608324557263 0.07317805868690043 -0.03376409684137431 -0.3207054760171585 -0.03391506580610986 -0.3210630954356132 0.05943338447496273 -0.0746110282476644
234430000.0 -0.03520631954780694 0.07305541347122683 -0.04560469620013081 -0.31923694690213994 -0.04582755450113763 -0.3192050310244987 0.0571799567468112 -0.07772728800820926
239410000.0 -0.03323222770637782 0.0728540651406843 -0.0572061945005203 -0.31698626609455793 -0.057482795384255075 -0.31693622357915024 0.054795203806216615 -0.0807802406537125
244400000.0 -0.031262262541618034 0.07262504986942045 -0.06875903997815243 -0.31430305612452647 -0.06897844813130591 -0.314254976669155 0.052208086012298975 -0.08381057291360236
249390000.0 -0.02926342111704752 0.07228417667313859 -0.0799913107369843 -0.3108697512636777 -0.08057223374870064 -0.3111016806847634 0.049488857879329 -0.08676320409035793
254380000.0 -0.02747542357172184 0.07183813361515741 -0.09133121158592764 -0.3073438458842048 -0.09149212392048243 -0.30729598284580034 0.04653960267987896 -0.0895543369298225
259360000.0 -0.02555431730723366 0.07133120978249627 -0.10246707374493384 -0.303423287542817 -0.1027318214645014 -0.30333375262856344 0.0434999768688188 -0.09223314843754833
264350000.00000003 -0.023714998722752192 0.07095896596294908 -0.11349060065199462 -0.2990805623769704 -0.11375155443196287 -0.2989814092755394 0.04024383852982999 -0.09485456779919575
269340000.0 -0.021869035335264728 0.07038642346666919 -0.12424169247482544 -0.2939781295545684 -0.12454947747280927 -0.29384786279069974 0.036860411670295815 -0.09724016435853912
274330000.0 -0.0200884881207639 0.06968949209837155 -0.1350275018963399 -0.28877749742440717 -0.13533440676126982 -0.28903933495631157 0.03320166947051628 -0.09969170147706034
279310000.0 -0.018372043602256544 0.06904721582823485 -0.14535125689727935 -0.2833092845143785 -0.1457466894691905 -0.28310605977696646 0.029463458614861625 -0.10174521683828666
284300000.0 -0.016572728059463613 0.06824282177794547 -0.15574654644124092 -0.2773102210478659 -0.15608522846982023 -0.2771197338327133 0.025482415344225864 -0.10382403313357691
289290000.0 -0.01502111320886125 0.06753271119385745 -0.1657074656694801 -0.2710467200116365 -0.16599121421978186 -0.27087304297310744 0.021485987033959843 -0.10560700023947246
294280000.0 -0.013479199775701625 0.06672915682645483 -0.1755109690069926 -0.2643654036431523 -0.17578771552506156 -0.26418146406525267 0.017296207909622746 -0.10738368940020059
299260000.0 -0.011908658963503148 0.06592145129638986 -0.18491239690531147 -0.2574276296332079 -0.18513697445351643 -0.2572661651248324 0.012982736958490702 -0.10887650291610568
304250000.0 -0.010436726720547858 0.06508591996028262 -0.19403620632207494 -0.2496997209372433 -0.19447780853768115 -0.24981774515468472 0.008643290476422653 -0.11006902161366224
309240000.0 -0.009017669171936105 0.06408289392563897 -0.20299117029074037 -0.2420012214147916 -0.20316006953360252 -0.24185944788111363 0.004131967839178622 -0.11109635986935441
314230000.0 -0.0077097173999245905 0.06306357258583872 -0.2116424504301745 -0.2339829372220629 -0.21188736069832334 -0.23376117751126108 -0.0004098223977930251 -0.11181423141881121
319210000.0 -0.006389871091597194 0.062045314064605846 -0.21980423124073886 -0.2253204261001309 -0.22025420779901708 -0.2253878630026932 -0.004989635534160437 -0.11247943010086202
324200000.0 -0.005139395442350022 0.06094827722920217 -0.22817827084441267 -0.21683604682739124 -0.22840521586743423 -0.21659698025094326 -0.009534765114593101 -0.1128379106540428
329190000.0 -0.0039033771382276134 0.05971371716735712 -0.23560927793595596 -0.20764444782757494 -0.23609825521665828 -0.20763651737915365 -0.014238551638760215 -0.11286816230332725
334180000.0 -0.002764269507170611 0.058616193340450824 -0.2432680282668705 -0.1986167540422261 -0.24347588582070537 -0.1983618955014896 -0.01886293329470899 -0.11272044459119995
339160000.0 -0.0016230597778745283 0.057388699224952135 -0.25010361949409476 -0.18874049331807807 -0.2505565292679891 -0.18873933404908652 -0.02372650417430618 -0.11220205578147407
344150000.0 -0.000628128227002168 0.05623062435273881 -0.2570083009868214 -0.17922479606869646 -0.2572582954035027 -0.17886577019676675 -0.028307862853650386 -0.1115440731397485
349140000.0 0.0004993151566087588 0.055015126215211804 -0.2630039818078449 -0.16897522791462624 -0.26354289967121963 -0.16880206922237473 -0.033068554874791566 -0.11050346084297001
354130000.0 0.0013902432204385984 0.053809021655195965 -0.2689314853734291 -0.15866574912872589 -0.2693244184697849 -0.158707528843131 -0.037682691741571954 -0.10943848325597819
359110000.0 0.0023861715011063967 0.05254757683260781 -0.2745078700140413 -0.14805455642448398 -0.27490166368476054 -0.1480811908214191 -0.04236750253292237 -0.10799814012140348
364100000.0 0.002971418097093294 0.05137772681910876 -0.27959495898712083 -0.1373959811404219 -0.27964290219724613 -0.13729837571963616 -0.046979403717336624 -0.10636569587186587
369090000.0 0.003853923525486702 0.050086206144409416 -0.28429151793698637 -0.12651528941281778 -0.28437977298387035 -0.1263167856769926 -0.05154728954081859 -0.1045275629050374
374080000.0 0.004452628144512785 0.04883172025040306 -0.28862628712313515 -0.11532542772734408 -0.288978918642761 -0.11540784291453263 -0.05597934346176743 -0.10237558268576044
379060000.0 0.005090994706487291 0.04748077342355467 -0.29246734976185773 -0.10414293872208624 -0.29285881093599925 -0.10410958052040145 -0.060287042243598335 -0.09989954635621769
384050000.0 0.00559502599807352 0.04616724171756314 -0.2958763347739923 -0.09283545852245739 -0.29633050062125665 -0.09258043402335323 -0.06457669766225134 -0.09734311215965635
389040000.0 0.006098718287845394 0.04492990353016174 -0.29889189286127776 -0.08126314991061911 -0.2993212355437683 -0.08104335747560328 -0.06879424125020586 -0.09440965912817252
394030000.0 0.006557314006538326 0.043667450495508686 -0.3018154206188155 -0.06962409804285277 -0.30188816530165713 -0.06930799955555365 -0.072763036086239 -0.09121396496245614
399010000.0 0.006991930691487474 0.04228062497827797 -0.30391557677701175 -0.057920025222549396 -0.3039559385170659 -0.057707838026511915 -0.07663024614574154 -0.08781195728096827
404000000.0 0.0072687191151530745 0.041097111769765805 -0.3055629934808007 -0.046157508784549627 -0.3055951430344499 -0.04594417434123403 -0.08027616912673619 -0.08412171124197614
408990000.0 0.007671146062459286 0.0397236710226563 -0.3067622752828616 -0.034300479087718404 -0.3067920912874085 -0.03403276547481281 -0.08374629886051968 -0.08028175986937507
413980000.0 0.007877706011121942 0.038651098038832064 -0.307514275740797 -0.022258696755228662 -0.3075258882132405 -0.02209767961315511 -0.0871277216271035 -0.07619400893987212
418960000.0 0.008076974292649242 0.03742072056002923 -0.30778569280374496 -0.010479200132091585 -0.30815106571238776 -0.010168582297834466 -0.09018240014117547 -0.07191438579698657
423950000.0 0.008266109883279853 0.03626620749912132 -0.3076057412600854 0.001556945860548545 -0.3076036095223146 0.0019327559139012977 -0.09298278790633184 -0.06758074796147094
428940000.0 0.00827260460745098 0.034968318327055915 -0.30731455869890656 0.013471382567339731 -0.30729301877529275 0.01395409432915186 -0.09558877116526951 -0.06288565859643849
433930000.0 0.008326721696334192 0.03382387553573326 -0.3061871034153602 0.02560361948443748 -0.30616915410245765 0.025817372150896696 -0.09789120530717678 -0.058216016982852094
438910000.0 0.008315679427763232 0.032647515852312424 -0.30461459638802413 0.03740196946211913 -0.3049392829633828 0.03765795180795567 -0.09986413725944866 -0.05338969859426261
443900000.0 0.008279366202652036 0.03151424523102383 -0.3029199606312516 0.04927937807486119 -0.3028768409233092 0.049543706811265166 -0.10165593404565433 -0.04840030714658781
448890000.0 0.008218929291774908 0.030460706141656205 -0.3004056670438543 0.06106362472373178 -0.30036296338809565 0.061273332545123745 -0.10306298080413526 -0.043366026909824815
453880000.0 0.008124638653361944 0.029376123527998607 -0.2974594559259868 0.07262281165586963 -0.29738324240897696 0.07293427059285414 -0.10424861717853338 -0.0382527665490051
458860000.0 0.007949293059416312 0.028280510738359833 -0.2943789672600986 0.08424502553543325 -0.2943053375245341 0.08450188753606686 -0.10510181844720155 -0.032977208246624826
463850000.0 0.007714076006912577 0.02724281730561754 -0.29049321854412774 0.095677883518757 -0.2903928656363997 0.09598203478899106 -0.10559563341489046 -0.027604026590007068
468840000.0 0.0075159417714244095 0.02633258112341085 -0.28622058500508607 0.10678579867681548 -0.2864194708167191 0.10725881852708334 -0.10598384917101837 -0.02212187538108231
473830000.0 0.007208638456254277 0.025390195858200477 -0.28176634237795906 0.11803880032703597 -0.2815805799250147 0.11848125205614392 -0.10621643356170384 -0.016709029395902738
478810000.0 0.0069350806045930125 0.02447544223821872 -0.2765062728836957 0.12905451794784323 -0.27671193937594835 0.12944470899384258 -0.10580782441158852 -0.011344951548685341
483800000.0 0.0065633476708541446 0.02368271725811617 -0.27112876766547517 0.139999924610636 -0.2710309632155008 0.1401891740658345 -0.10514378970493363 -0.006044140890871136
488790000.0 0.006180966742176821 0.022781163250897307 -0.26509171448601354 0.15040951295998364 -0.26490775680452167 0.15073327125352914 -0.10434975345740784 -0.0006556574658604918
493780000.0 0.00583754980379204 0.02201642684945058 -0.25892617760426406 0.16079139662692998 -0.25872954066366705 0.16110761454990719 -0.10317547170139678 0.004558865154493079
500000000.0 0.005273513543962935 0.021025797571242205 -0.25038325545383006 0.17317969778896442 -0.25023203233794 0.1733981324292713 -0.10114300264534902 0.01102336984212897
503750000.0 0.0048927533045312385 0.020411169212163023 -0.24510394820475476 0.18057418672771544 -0.24494627419097054 0.1807880114883087 -0.09971998937220128 0.014778722824216738
508740000.0 0.004404363126261562 0.019768805943673855 -0.23745259123567572 0.18996337623153933 -0.23725353189168719 0.19021193179909202 -0.09746101760293573 0.019669290642258686
513720000.0 0.003931898133818252 0.01912082635397984 -0.22967251531436583 0.19929965655513465 -0.22939401670922524 0.19962014550598328 -0.09484191979799399 0.02447481489593359
518710000.00000006 0.003478694615061523 0.01853456237260883 -0.2212707051865388 0.20807791267149942 -0.22105268522052737 0.20830951267829986 -0.09176049119811626 0.02912577018507704
523700000.00000006 0.002990842287986382 0.017949539935357223 -0.2127419088034699 0.2167902741225547 -0.21251476995198476 0.21701293801921423 -0.08861131030359534 0.03350109895641376
528690000.00000006 0.0024181631393088137 0.017494040283510315 -0.2038703405782126 0.22515334096566259 -0.20355576858279278 0.22543777809441085 -0.08494985371300236 0.03785764839363953
533679999.99999994 0.001958086830868996 0.01702735625864833 -0.19440565184952932 0.2329192986943691 -0.1943445609216535 0.23342522219256004 -0.08120038839975571 0.04198246188637934
538660000.0 0.0014983571340535266 0.016528091124889392 -0.18473359962385577 0.24066253207620436 -0.18460756369960402 0.24075922536886055 -0.07720557275861065 0.04575023439290269
543650000.0 0.0009494403673711818 0.016171592912488552 -0.17481169982227882 0.24753611706901194 -0.17466688087580043 0.24806539037204703 -0.07294754028901225 0.04940776793248046
548640000.0 0.00047354088168811016 0.015678409340495372 -0.1646924072246322 0.2543809557551705 -0.1646153412171904 0.2548465157918882 -0.06836370564719318 0.05266615126667047
553630000.0 -8.025989781533594e-06 0.015328509962430096 -0.15430544848211192 0.26081236208640957 -0.15412332951566965 0.2609200240444616 -0.06368303274960074 0.055730650830062095
558610000.0 -0.0005021463324996541 0.015057700164671213 -0.14371427165376846 0.2667948046184276 -0.14348139457259407 0.26692011737570787 -0.058955177687946794 0.058402140262368674
