! Created with skrf (http://scikit-rf.org).
# Hz S RI R 50.0 
!freq ReS11 ImS11 ReS21 ImS21 ReS12 ImS12 ReS22 ImS22
1000000.0 0.07583099632302172 0.0013394278704910816 0.919514660669858 -0.0011539932175576105 0.9108930271539023 -0.0019325499559643305 0.08020581914122876 0.0008003523003685618
2000000.0 0.07650662107063198 0.0009640778174270124 0.9192783269429534 -0.001545502535765743 0.9117469774493205 -0.0013523771465934829 0.0794664248696013 -0.00031096440774285966
3000000.0 0.07656823212855668 -0.00047566523966615997 0.9192946578277322 -0.0017958042018314637 0.9123575686598977 -0.0021499522265689113 0.07954802311581019 -0.000936728063668779
4000000.0 0.07677839447014201 -0.00040270628666704033 0.919490992658784 -0.001993572735527647 0.9130704957723089 -0.0027920477020902017 0.07950949084577323 -0.0005126641987248104
5000000.0 0.0769271990747914 -0.0007019572303737323 0.9196804764484527 -0.0022310406868975897 0.9135558622994763 -0.0032310074823361347 0.07952937058463802 -0.0009418731444166494
6000000.0 0.07731193667048696 -0.0010999130570077638 0.9198164335720886 -0.002823107753025705 0.9138810660818844 -0.0038507616746041784 0.0797041492604853 -0.000856422809693893
7000000.0 0.07730102669135902 -0.0014100245174814426 0.9197860924447122 -0.003294845484040447 0.9140618438104584 -0.0044685957385732005 0.07970634241574535 -0.0009918081496504475
8000000.0 0.07743264931999103 -0.0014138273310812545 0.9196730216807878 -0.003683396872804504 0.9143051465525176 -0.004824333101170773 0.07978964937948203 -0.0011856528475780545
9000000.0 0.07779562707607811 -0.0014585416910426012 0.9197977755575882 -0.00416857657635442 0.914352357040741 -0.0052233339079926465 0.07982352819213297 -0.0015137832325903425
10000000.0 0.0785735416287505 -0.00027557335285242185 0.9199698558619035 -0.004498791830062931 0.9137590458324057 -0.006670213586457144 0.08026104634171717 -0.0012737386076412376
15000000.0 0.0788784091267801 -0.00205513443484773 0.9199461360102961 -0.006853175443430412 0.9142010249206376 -0.008269326555940678 0.0803559788997842 -0.00288541226111169
20000000.0 0.07810073845893349 -0.0029632051480052396 0.9201591611574675 -0.0091061724989733 0.9142324902541309 -0.010079587516730276 0.08065289667020495 -0.0034262672563608034
25000000.0 0.07789256179488047 -0.004085327947436049 0.9206268824373168 -0.011161919806496803 0.9143680379979693 -0.011859776514984512 0.0811572521782179 -0.004404599184852035
30000000.0 0.0782229896159828 -0.005220640843692276 0.920726893994503 -0.013334549072932429 0.9149444687941641 -0.013636276807566051 0.08154163163083232 -0.0056908529356347074
35000000.0 0.07812760872126903 -0.0058834922791679845 0.9208258386683247 -0.015338500658952203 0.9152300376397524 -0.015557470401787983 0.08140396501958688 -0.00678974442471479
40000000.0 0.07815412073968976 -0.006627879164185995 0.9208418171582518 -0.017544020678715584 0.9154675645697287 -0.01729285355351994 0.08097284315206199 -0.0076887517392429825
45000000.0 0.0786329425666418 -0.0076347133057817936 0.9208876491792857 -0.01961306429763648 0.9157621251676143 -0.01909354534469284 0.08064646573626079 -0.008906832115770242
50000000.0 0.07896596304404979 -0.008818032440351665 0.9207019778690565 -0.02160781240480223 0.9162718678102908 -0.0212134630278921 0.08042182842643004 -0.009916216571554087
55000000.0 0.07922103152944233 -0.009780837830471359 0.9208359181109997 -0.023676025468306258 0.9165753083757593 -0.023210804519700194 0.08026322397406022 -0.010956879989990342
60000000.0 0.07916675169593226 -0.010930672188913524 0.9207916225148958 -0.025641503900453062 0.9164701107890367 -0.025247334148939937 0.0799842888275312 -0.012022293321037292
65000000.0 0.07904324793685294 -0.011896822785524277 0.9209198374354259 -0.027728029994070792 0.9165201802599285 -0.027137610493094638 0.07985309609075832 -0.012736640378307554
70000000.0 0.0788764518416823 -0.012806509260179356 0.9208189820427998 -0.029776745064404843 0.9164079414346122 -0.029114122426588628 0.08001232001683468 -0.013837187490497616
75000000.0 0.07882806382852474 -0.013777588083054135 0.920723554815605 -0.03169877844745735 0.9165818026838496 -0.031230641719313824 0.08028141248000162 -0.014834979403197106
80000000.0 0.07875355808158688 -0.014727060706960404 0.9207803627337025 -0.033742547151044064 0.916413012333757 -0.03307745160884902 0.08061653378737933 -0.01589615984230267
85000000.0 0.0789927613365121 -0.01575502221658888 0.9207622437446339 -0.03567415827082585 0.9166114923042978 -0.03511914452992511 0.08108740716633087 -0.016966555983105015
90000000.0 0.07900320947365212 -0.016485650265773973 0.9207276763930802 -0.03776531993932093 0.9164797650894639 -0.03704195839488467 0.08117989114858876 -0.017909866663968856
95000000.0 0.0790296208674296 -0.017307087457963312 0.9205775870065027 -0.039578337481577096 0.9164875168823822 -0.038869184909711106 0.08116161413543557 -0.018833553271533153
100000000.0 0.07907923131462331 -0.018293808309407675 0.9204620799310076 -0.041513181020090495 0.9165607090030363 -0.04077499102632872 0.08107324253717992 -0.01981354264928347
105000000.0 0.07918290544422234 -0.01903789277475385 0.9204584921722518 -0.043367935694196384 0.9164214786646666 -0.04273987767891572 0.08072663794435772 -0.020807234513805006
110000000.0 0.07933731900623751 -0.019941612301576726 0.9201712678866787 -0.04530356018558397 0.9165182175794268 -0.044574105771983015 0.08047592526355477 -0.02173137042709575
115000000.0 0.07931263225052913 -0.021021970463298918 0.92020791733795 -0.047277050163050505 0.9165757838060343 -0.04656680188068999 0.08016819092071854 -0.022553150312230007
120000000.0 0.07949510273450236 -0.0219916101286153 0.9199681312884221 -0.04918293993182934 0.9165670866208427 -0.04856729530455862 0.07968909295999169 -0.02353014693118405
125000000.0 0.07936760303500022 -0.02298007392169254 0.9199247289654843 -0.0509970902405058 0.9165536726734997 -0.050410225765755344 0.07939220997597612 -0.0245727904638881
130000000.0 0.07890001267240052 -0.02403576429728387 0.9196217665433624 -0.05294265476445681 0.9164743429234659 -0.05244370331988555 0.07911404168204877 -0.025459454337472768
135000000.0 0.07824460088967813 -0.025029282506000092 0.9196355344355243 -0.05490489953737881 0.9163144182262916 -0.05434130447999676 0.07875304747898973 -0.02639298870382114
140000000.0 0.07747548960908261 -0.026055319981667525 0.9194500471040838 -0.056761900997358644 0.9161698280749254 -0.05632271183805156 0.07847165400945481 -0.027469435529494223
145000000.0 0.07679450900602991 -0.027041672235872383 0.9193494878650609 -0.05864152767722947 0.9159985764680283 -0.058136717451223015 0.07829280221641896 -0.028575243556140047
150000000.0 0.07637562201649384 -0.028171123864398 0.919196065507533 -0.060511630228825726 0.9158132725116572 -0.06010394251663655 0.07803376052963015 -0.02939851870268474
155000000.0 0.07632825065018738 -0.02921812454332528 0.9190282863932304 -0.06251945808011357 0.9157094338071942 -0.06190356384880451 0.0778536411838661 -0.030405518897867793
160000000.0 0.07660179530868949 -0.029983954943347643 0.9187938534034743 -0.06428870778656408 0.9154690485341213 -0.0638791961962261 0.07778479211665602 -0.031429243734720544
165000000.0 0.07706603350150544 -0.030523773147101595 0.9185562729452125 -0.06616185649367735 0.9154205914015641 -0.06575617811616845 0.07793020480337866 -0.032436069643544764
170000000.0 0.07753526723317936 -0.03116797154863744 0.9182961017187673 -0.0678634937529449 0.9153178884109581 -0.06737262247072265 0.07792753488376167 -0.03333806065648584
175000000.0 0.07801440167115424 -0.031875071984359286 0.9180481393231894 -0.06985766196711714 0.91527473682035 -0.06930803591995363 0.07805575323401685 -0.034332426796574916
180000000.0 0.0784186920062434 -0.03225591940631742 0.9178582979560597 -0.07178855633334966 0.9152403479133094 -0.07116172301154387 0.07819518120612727 -0.0352681048181242
185000000.0 0.07854857480565561 -0.03309094556636172 0.9176616672984494 -0.073652055383504 0.9150755422217977 -0.07302884991009799 0.07836413462361533 -0.03617189368813322
190000000.0 0.07854031176828646 -0.03401692193033296 0.9175250511157835 -0.07546556757267225 0.9148942872268145 -0.07492280943855464 0.07843748232016653 -0.03716851679366377
195000000.0 0.0781793909104113 -0.03495616925946959 0.9173844452231775 -0.07734990493944259 0.9149563343630311 -0.0768778277053029 0.078591905571283 -0.03814870372383013
200000000.0 0.07789443030437637 -0.03574040494915557 0.9172705995781625 -0.07925491911188998 0.9145751595782791 -0.07872626202796684 0.0784820568174588 -0.039152698846232695
205000000.0 0.07756225468305684 -0.03681500046084974 0.9169892717658249 -0.08115606545746644 0.9143190377194489 -0.08057768705006656 0.07840478097956309 -0.04013679472381806
210000000.0 0.07708712789965728 -0.037826926027179235 0.9168526521723774 -0.08305926797680982 0.9141482651075354 -0.08255293299125455 0.07807096231119987 -0.04106254257331714
215000000.0 0.07676676300404785 -0.038677135527397266 0.9165474139908484 -0.08477835945857363 0.913842315955756 -0.08430799622173865 0.07790040832395669 -0.04205088009829051
220000000.0 0.07668728457120022 -0.03946542585369007 0.9163402302323682 -0.08655504622428303 0.9136520620655767 -0.08615416270719303 0.07749919769506124 -0.04307670022992401
225000000.0 0.07643641348258731 -0.04042962061544932 0.915952798382472 -0.08827486388969763 0.9133834207272332 -0.08797876259780299 0.07714230747557009 -0.04401768495991303
230000000.0 0.07631240467096129 -0.04106012433773147 0.915787283324832 -0.09005230116245573 0.9133869474361948 -0.08976501982878278 0.07656301048343236 -0.04478949723161198
235000000.0 0.0760252021416601 -0.041977255804003674 0.9155989951398976 -0.09196933931751099 0.9130306811552841 -0.09158095006489704 0.0762604439686183 -0.04564245268933337
240000000.0 0.07597145605034902 -0.04262295894953757 0.9151539226180997 -0.09363532483002204 0.912783326615944 -0.0933530605752971 0.07570039530410837 -0.04648747495389027
245000000.0 0.07593472897302254 -0.043385962220504774 0.9148563174059545 -0.09548555698603685 0.912580790832778 -0.09509302103153072 0.07520227009116043 -0.04729000535264937
250000000.0 0.07581164479306403 -0.04422312754638078 0.914504647867339 -0.09711986705791698 0.9123916037442797 -0.0969829882202115 0.07473201987661758 -0.04817261419458441
255000000.0 0.07571093312645595 -0.04494601669253242 0.9140759690732241 -0.09903979201904577 0.9119822346532043 -0.09860346159136749 0.0743898796149785 -0.04911107515820867
260000000.0 0.07563823355903526 -0.045781695091845195 0.913893044553069 -0.10086449223220534 0.9119262666545453 -0.10043165134640603 0.07419361393866745 -0.05006308619244761
265000000.0 0.07546988418208339 -0.046504387118533885 0.9137162580164668 -0.10270704139411149 0.9117891221163097 -0.10217600024582836 0.07398877529288159 -0.05114562495363312
270000000.0 0.07527091264361883 -0.04748662353003795 0.9133535604631148 -0.10447406008789 0.9115712078637478 -0.10384925139325121 0.07385584757271851 -0.051997610053005905
275000000.0 0.07509090100185097 -0.04831693436080541 0.9130048135026456 -0.10626655897681078 0.9113293252477498 -0.1056649740405194 0.0737349941385698 -0.05327697819935589
280000000.0 0.0746875478495456 -0.04932765817815279 0.912636337906389 -0.10805400249963866 0.9109614515207823 -0.10752100220825801 0.07344059810904233 -0.05440807536187855
285000000.0 0.07452635838646869 -0.05023823761282109 0.9124894109832673 -0.10973907221968213 0.9107810861590269 -0.10921732403726502 0.07339440587548372 -0.055471898231171664
290000000.0 0.07422370737391103 -0.05095177642771992 0.912240329226506 -0.11172478818122981 0.9105550073883621 -0.1109717566642059 0.07338048144569069 -0.05642752305174296
295000000.0 0.0739801234053213 -0.05204722422270797 0.9119172705042788 -0.11348439691955185 0.9101429544338786 -0.11292740342598562 0.07317628842871661 -0.05761165361443246
300000000.0 0.07384824238054004 -0.052843815125474536 0.9117302325877202 -0.11530949211413082 0.9098081543729468 -0.11471408588927014 0.07291316211355882 -0.058365854103939775
305000000.0 0.07351766277292757 -0.05350835777320028 0.9113276537949925 -0.1171580923548335 0.9094676927156351 -0.11645474218215765 0.07279018866317229 -0.059301460327791475
310000000.0 0.07335421092878958 -0.05443256654896241 0.9111611823819846 -0.11883621041072448 0.9091500624968031 -0.1181933302438991 0.07265690185163319 -0.06020433104039707
315000000.0 0.07313844773820628 -0.05522354738431657 0.9107593924668219 -0.12066802100282391 0.9088328459688585 -0.11990884898504532 0.07228721522691582 -0.060974954036761654
320000000.0 0.0729387022570998 -0.056168780642020404 0.9104799591909087 -0.12244685809709144 0.9084382054995457 -0.12169028807020078 0.07225561088275588 -0.061736356720676996
325000000.0 0.07279483939623688 -0.05685613148623528 0.9101583348330402 -0.12421219033294616 0.9082588610882534 -0.12330606496437953 0.07210070026769269 -0.06254921364399794
330000000.0 0.07246501074602066 -0.057576707536780604 0.9097701955269456 -0.12599236931829966 0.9076976739662139 -0.1251195055744674 0.07168472145204145 -0.06314217077893755
335000000.0 0.07233359949031563 -0.05849013064381022 0.9095449422886128 -0.12766006383672138 0.9075497448587014 -0.12676638031121062 0.07176810330282611 -0.06387724267137991
340000000.0 0.07213270850615974 -0.05922102650517372 0.90922129732859 -0.12930440680633198 0.9070988910751112 -0.1286667213329677 0.07139055773472018 -0.06464938772399047
345000000.0 0.07180344579451237 -0.059954534231758304 0.9088953692935888 -0.13108147386222943 0.90675438037531 -0.13035996480367917 0.07115987219935845 -0.06540096401562895
350000000.0 0.07182776822315246 -0.060774484938202936 0.9085157499902032 -0.1328614127384318 0.9066193058401236 -0.1320945221013616 0.07080201528898389 -0.06630903246365666
355000000.0 0.07150239487686627 -0.06152393372592542 0.9080281775196194 -0.1346026042728305 0.9062383751519335 -0.13370296703826376 0.07068534288861296 -0.06694923331915843
360000000.0 0.07140737416934163 -0.06221054279529208 0.9076873587151411 -0.13643220807508383 0.9060592055438099 -0.13554013078016428 0.07019671078555528 -0.06775981636104939
365000000.0 0.07118737433807608 -0.0629040298565586 0.9073162648995972 -0.13791569201111964 0.9057760852041338 -0.13727434340137923 0.06982393385930767 -0.06857373625201882
370000000.0 0.07093968783635653 -0.06349623257438133 0.9068745300005967 -0.13970315623254767 0.9052715902483431 -0.13911830124279378 0.06939979468658415 -0.06938807072932378
375000000.0 0.07075348734576237 -0.06430881520921662 0.9064490806600992 -0.14131885519253387 0.9049618774546028 -0.14081352632814198 0.06897706908349666 -0.07013758708347469
380000000.0 0.07047144659719033 -0.06490485795242229 0.9061301930764076 -0.14307152507208973 0.9045968673899285 -0.14241880708085786 0.0684813721681147 -0.07092741786513987
385000000.0 0.0703802586088653 -0.06550656542266216 0.9056696263451149 -0.14481676338054159 0.9041432712255345 -0.14430385072260907 0.06792614302436356 -0.07175378371267255
390000000.0 0.07017209856519485 -0.06630676190230562 0.9052605603768091 -0.14650047746587996 0.9038624155119469 -0.14601839645177206 0.06771599930185333 -0.07234084896778785
395000000.0 0.06975807098104551 -0.06686712430660016 0.9047636403985639 -0.14818550406829745 0.9033500557004509 -0.14777148511196847 0.0672918110205047 -0.07321424331438878
400000000.0 0.06953752007705896 -0.06765041324100356 0.9044966744944333 -0.1498590288063316 0.9030680012037638 -0.14921225179245945 0.06683970387326503 -0.0739184321958532
405000000.0 0.06946667281266351 -0.06836311183406647 0.9040390859026372 -0.1515814313631908 0.9026740185906796 -0.15113082927502627 0.06648566867043391 -0.07459938419599181
410000000.0 0.06910931855865281 -0.06904674588492501 0.9036228120374428 -0.15315918641921633 0.9022581604858881 -0.15265362072669866 0.06601177050069887 -0.0754025933275561
415000000.0 0.0688658171894521 -0.06963372015253928 0.9031541377630248 -0.15490214364914495 0.9018927764395315 -0.15444241452628418 0.06579716446416414 -0.07603034349184343
420000000.0 0.06855571018782688 -0.07041621766617506 0.9029006329160484 -0.15657028688574753 0.9014133224772871 -0.15617336617483257 0.06544832895288896 -0.07687596939907285
425000000.0 0.06828696916252337 -0.07093552960825908 0.9024692758874656 -0.15817949167915915 0.9010565319224751 -0.15788143065935034 0.06513823070297282 -0.07772545330772986
430000000.0 0.0680833558536251 -0.07161247838647783 0.9020117554746289 -0.15989664707191636 0.9006984377098439 -0.15957093421756374 0.06461285744995388 -0.07844019410125681
435000000.0 0.06772661989117273 -0.07233199989106633 0.9015981412877713 -0.16157922701813673 0.9002481210408563 -0.16110928404851055 0.06424274531866171 -0.07906838585772619
440000000.0 0.0675890097023359 -0.0728226025476868 0.9012226410742312 -0.16321240453140295 0.8998153715036403 -0.1629427864826325 0.06379563543071287 -0.07968299622825123
445000000.0 0.06733390886086264 -0.07352113824637907 0.9008314512550989 -0.16485590615917012 0.8993470602407578 -0.16449098017800895 0.06361836951582955 -0.08057179766640597
450000000.0 0.06715728436285759 -0.0740909014347133 0.9004437809292921 -0.16645909304976644 0.8989545040850008 -0.16624965831054717 0.0632699020077398 -0.08126832492600503
455000000.0 0.06688997307526799 -0.07475092696339858 0.9000846747053559 -0.16839618915796528 0.8985740462190965 -0.16791992630077943 0.06285391706535168 -0.08191575012826653
460000000.0 0.06671795995693168 -0.07535717239306935 0.8996521026387795 -0.1698456471311034 0.8981526428388157 -0.16938285496455147 0.06267580316669609 -0.08285477210802336
465000000.0 0.06645469243758573 -0.07610035952367901 0.8991086460980299 -0.17139542688743858 0.8977308352396772 -0.1710575977934135 0.0624038910797265 -0.08358278938931553
470000000.0 0.06629204456014474 -0.07653070905053172 0.8987634079773625 -0.17321137092060224 0.8973385550160192 -0.17269865689320948 0.06205384011850804 -0.0842831861534135
475000000.0 0.06597425132563584 -0.07722206758006656 0.8984760566358909 -0.1747878032000805 0.8970930407127661 -0.17426104636707673 0.062019045843204536 -0.08487390642518576
480000000.0 0.06581671723475584 -0.07785269307718451 0.8979330557892506 -0.17667953212447296 0.8965373131228342 -0.17598072843252044 0.061750550438822445 -0.08566663849286865
485000000.0 0.0655707663629706 -0.07833978382832879 0.897564484551018 -0.17816556437884487 0.8961382546483081 -0.17753085041572997 0.06159373673323758 -0.08638918132453578
490000000.0 0.06514413069343522 -0.07873033793594898 0.8970994905437066 -0.17972552165465844 0.895760045967507 -0.17918887791720384 0.06122087512755 -0.08706048864551674
495000000.0 0.06488036942400506 -0.07926897077959044 0.8965886795223575 -0.18147667909971066 0.8953638100386284 -0.18068598087809853 0.061092414190494715 -0.08771965148858202
500000000.0 0.06458919815481441 -0.0797663116327417 0.8960552121220456 -0.18310299482331147 0.8950083978098784 -0.18244796377514536 0.060875287673168965 -0.0884571595772768
505000000.0 0.0644116055958992 -0.08031858521612527 0.8955963781514824 -0.18469849195790225 0.8944884917059859 -0.18417072176244084 0.06063093255065246 -0.08906950223217498
510000000.0 0.06421812947023811 -0.0808816771893639 0.895205967261592 -0.18627303819183763 0.8940628634907011 -0.18578774129382095 0.060367979141739296 -0.0897630668931089
515000000.0 0.0639508316112079 -0.08128388256660342 0.8946647823115792 -0.18793961616272767 0.8935459216873848 -0.1874474786151115 0.060004997582155654 -0.09031720992511302
520000000.0 0.06357376508666646 -0.08187166880483332 0.8940641112859931 -0.1895048001914352 0.8930864481159224 -0.18901842435621516 0.059515032814269675 -0.09079410271042522
525000000.0 0.06337335207958562 -0.08231687747934198 0.893579735205056 -0.19117086022809493 0.8925921355417511 -0.19063718596588652 0.05920642803062771 -0.0914449248946524
530000000.0 0.06292189184338777 -0.08274756739527261 0.8931184520948506 -0.19281091371377002 0.8920670022099336 -0.1921910811492555 0.05882987431309991 -0.09186711910201165
