! Created with skrf (http://scikit-rf.org).
# Hz S RI R 50.0 
!freq ReS11 ImS11 ReS21 ImS21 ReS12 ImS12 ReS22 ImS22
1000000.0 0.07750580238493016 0.0011315985818220187 0.9185212810263038 -0.001663422108883611 0.9183469394140693 -0.0008858411157601855 0.07557874870579677 0.0013257225956593904
2000000.0 0.07834792484128167 0.0010365072930545506 0.9182695127221341 -0.0017507838581075016 0.9187058752451623 -0.0013818116054165937 0.07610613882071061 0.000956702097781307
3000000.0 0.07833599369668376 -0.0006209382045983148 0.9186505666099426 -0.00210280701615991 0.9186942641876675 -0.0017579528971120538 0.07643292579826971 -0.000385214763946691
4000000.0 0.07821709944675222 -0.0006233956149108611 0.9190697636152237 -0.0026139233128051435 0.918913662621451 -0.0021702626956387958 0.07658819856050487 -0.00029149243281093924
5000000.0 0.0783285388279713 -0.0009430629535805193 0.9191364681508016 -0.0030982110558904676 0.9192376138633107 -0.00248214645701119 0.07676596794381872 -0.000553035491663127
6000000.0 0.07820663486802415 -0.0008865211481364455 0.9193586709662861 -0.0035118568450878047 0.9193785148260208 -0.002701295889826124 0.0771329764461981 -0.0009639196514658813
7000000.0 0.07835145986418217 -0.0011014293784627482 0.9194886717147793 -0.003959692119882173 0.919505058615809 -0.0033412190492149866 0.07716168928604539 -0.0012641173404573966
8000000.0 0.07832981083028831 -0.0013387596335591371 0.9194248269223523 -0.004402332909826361 0.9196577622928542 -0.00397131595205872 0.07731464804980272 -0.001227360586050332
9000000.0 0.07864151348009131 -0.0015755039239177856 0.9195085787677442 -0.0048433312532411244 0.9196472833260728 -0.00449072808885867 0.07761949066199254 -0.0013244117154166157
10000000.0 0.07979616126060027 -4.440069868699601e-06 0.9197009215752663 -0.0051365809902453 0.9197674985899014 -0.004382975903611987 0.07848148342177322 0.0004390791865835726
15000000.0 0.07999231749936671 -0.0014589437535432734 0.9198842607124942 -0.007575632571220675 0.9199309945225018 -0.006788251352669493 0.07870012579794916 -0.0013519771134912833
20000000.0 0.07919928980933526 -0.0028737688124612177 0.9198666744508712 -0.009773038284139326 0.9200446056140044 -0.00912450279575592 0.07800060985673704 -0.0021732378454624173
25000000.0 0.07893911762247463 -0.003919681641696462 0.9200743460325734 -0.01207025276032116 0.9201564155923959 -0.011470533468456534 0.07774301271781955 -0.0032776639306048017
30000000.0 0.07929115328394873 -0.004771006183916112 0.9202599557589844 -0.014267053278367641 0.9203761839551163 -0.013597789308291391 0.07804942296661012 -0.0043655983628032155
35000000.0 0.07937610339589309 -0.005673956411477618 0.9203129378401215 -0.016365788970581423 0.9204559347472024 -0.015741163220030694 0.0779167681044877 -0.0049299204234357
40000000.0 0.07938438884856618 -0.006622295882403514 0.9203680109110748 -0.01848594465404255 0.9205739510626432 -0.017938540560672473 0.07792139735895169 -0.005683720227508609
45000000.0 0.07989876098271917 -0.007697102526854977 0.9204879937782643 -0.020720759728837662 0.9207577109946505 -0.019910627477587785 0.07847812655792394 -0.006723165131348236
50000000.0 0.08016439800067865 -0.00910028023439046 0.9204877006603029 -0.02260784485210131 0.9208145156063003 -0.02213332098731432 0.0788139301585114 -0.007964958002500473
55000000.0 0.08041089462169909 -0.009937783807579054 0.9207503186077295 -0.0248778956683719 0.9208627392113442 -0.024259224356915524 0.0790647975998784 -0.008911673966072776
60000000.0 0.08009030719280447 -0.010865148042884512 0.9206560866347248 -0.02702568661131364 0.9208462210759459 -0.026489689582556465 0.0790324738790775 -0.01009375483904812
65000000.0 0.08009353232327744 -0.011815585675479374 0.9204615343546713 -0.02919109052164723 0.9205962383899996 -0.028697905330366046 0.07888516789996511 -0.011061414724919822
70000000.0 0.07992644015668242 -0.012732106377824974 0.9204760783978444 -0.03133338280768947 0.9206753946709686 -0.030626885406178306 0.07873020747235082 -0.012000761357085183
75000000.0 0.07980256063897544 -0.014023055658048655 0.9204309560369465 -0.03332642199358115 0.9206775424295032 -0.0327021470809562 0.07870086646189473 -0.012801867152096812
80000000.0 0.07986928243110393 -0.01496763312153474 0.9203065071178554 -0.03529948291833643 0.9206870196938758 -0.034818112328965714 0.07857763333940643 -0.013780592534172183
85000000.0 0.07988359535084175 -0.015918013229260074 0.9203522735367672 -0.037247870706405166 0.9205725818891707 -0.03689375909661713 0.07880258361431898 -0.014620546073233438
90000000.0 0.0800210458865071 -0.01690284613715597 0.920222519220706 -0.039354910002386154 0.9205593510979584 -0.038954910946052426 0.0787750563378829 -0.015247166452409219
95000000.0 0.08013205621503085 -0.017696382357332383 0.9200383440416823 -0.041215630471949476 0.9203953718534886 -0.04113036401682168 0.07876208831825948 -0.015839998584087234
100000000.0 0.0801773241895899 -0.01849596445970228 0.9198246035083861 -0.0433129216407395 0.9202456512690882 -0.04296194617457547 0.07885211767857188 -0.016736443184778647
105000000.0 0.08031361252464815 -0.019263135895916546 0.9199231232709852 -0.04524465273926597 0.920193312163994 -0.04493541456468418 0.0788699129034217 -0.01727127554009663
110000000.0 0.08039907321544208 -0.02006077975188081 0.9199026182280655 -0.04721941443764542 0.9201976104207052 -0.046887660809956516 0.07900049092770257 -0.018025655930536916
115000000.0 0.08040597817991217 -0.021073640666613734 0.919659497990312 -0.04936654357614039 0.9199609741714867 -0.0489135574774447 0.07890156378814879 -0.01908927384545845
120000000.0 0.08030103952042714 -0.022069684293534116 0.9196210531522163 -0.051329772253367316 0.919947919405588 -0.05093421191085153 0.07894934597441293 -0.02002215541233772
125000000.0 0.08029323161986475 -0.023134572741909207 0.919704673620942 -0.05331774030533752 0.9197708323376058 -0.052877325319482846 0.07866708230983475 -0.020904069406990123
130000000.0 0.08000788829744263 -0.024066514540998056 0.9196426882677702 -0.055401308072130694 0.9196099087448169 -0.054853758882153984 0.07814741433432366 -0.02181462181103043
135000000.0 0.07961602743534973 -0.02504268911538754 0.9193419258309031 -0.0573993285773649 0.9195293241034047 -0.05674685100562084 0.07729935412964173 -0.022780258522495746
140000000.0 0.07919079617879571 -0.026204633771889283 0.9191408126347339 -0.0594287784745217 0.9193510994062021 -0.058934598614677154 0.07636396652982859 -0.023882474573487987
145000000.0 0.07879949615077064 -0.02717238464554212 0.9187403914156707 -0.06145617023174673 0.9190993258171037 -0.060716993457314225 0.07562518602344648 -0.024823993465511292
150000000.0 0.07862856201082176 -0.028302490090098963 0.9186299441628915 -0.06344588349115231 0.9188223455546862 -0.06259349386505245 0.07504250183533209 -0.025915322644244773
155000000.0 0.07860684696120704 -0.029671527165852016 0.9181999001772809 -0.06532551740035296 0.9187480207415238 -0.06474129219331434 0.07489523094725857 -0.027100533276498834
160000000.0 0.07832462348959231 -0.03075895363173738 0.91814649450611 -0.06731418440094165 0.9184610305262123 -0.06673516718751818 0.07504017107198638 -0.027947866747781644
165000000.0 0.07838029996255817 -0.032160631432736966 0.9179435383550889 -0.06925395231270509 0.9182063341264665 -0.06872273316735798 0.0753395693602963 -0.02851101464390729
170000000.0 0.07852009965540827 -0.03334751637235257 0.9178635500780542 -0.07114037649302381 0.9179564064168164 -0.07070303420227034 0.07580047924948398 -0.02927861359595094
175000000.0 0.0786435516104286 -0.0345763721450869 0.9176611894884769 -0.07299870323757744 0.9176124345772048 -0.07282461884160024 0.07620095890626707 -0.030081376636736275
180000000.0 0.07871725044969137 -0.03556668294306141 0.917555688334503 -0.07502571398341153 0.9174804721203967 -0.07467879480475305 0.07656699249854217 -0.03055690750271436
185000000.0 0.07881325585536979 -0.03676043578142106 0.917424676471013 -0.07697706015300658 0.9172346038421741 -0.07672111693042248 0.0767084104217688 -0.031471329233664656
190000000.0 0.07878597119849065 -0.03739561967544564 0.9171283824987785 -0.07887044654230826 0.9171883444031906 -0.07854692600371165 0.07671804124046058 -0.032289306589546055
195000000.0 0.07881976450703902 -0.03821756879261504 0.9168578962213035 -0.08089270980919909 0.9167178298814901 -0.0806325114108248 0.0763880343937983 -0.03329037780404338
200000000.0 0.07866113039811551 -0.03898429327645361 0.916644814135183 -0.08276562798917035 0.9166610276240358 -0.0824791618165427 0.07620835235767205 -0.03401158551819592
205000000.0 0.07854163623980154 -0.03979637039359492 0.9163260490569382 -0.08483488771739639 0.916462718033268 -0.08431394190726192 0.075837197288368 -0.03502639874022103
210000000.0 0.07838803604173296 -0.040555757929110516 0.9160201505269988 -0.08677198183531107 0.9161493796884737 -0.08626309701824263 0.07541548202051158 -0.03597479737525046
215000000.0 0.0781536374055617 -0.04121790697155664 0.9157272503304017 -0.08860982651994982 0.9158291276487561 -0.08807772921252179 0.07513431552230723 -0.036730731145709954
220000000.0 0.07818309148158677 -0.04207735206602453 0.915551782659093 -0.09039199302908972 0.915610188067525 -0.08987492780448582 0.07501762021051701 -0.03745684318964226
225000000.0 0.07785232992880145 -0.04270684919293846 0.9151619691846258 -0.09206769474046102 0.9153795845416021 -0.09170090196703774 0.07478698045971138 -0.03830326363161276
230000000.0 0.07770010433305491 -0.043526673626806206 0.9150000760260135 -0.09411932428074278 0.9151730556033425 -0.09366142794923445 0.07462325940062334 -0.03884733705778317
235000000.0 0.07748233205793245 -0.04424835290186937 0.9148486871546583 -0.09611291845133851 0.9149345168182887 -0.09530590395047502 0.07432706210387248 -0.03963074143076634
240000000.0 0.07732677876418184 -0.04511226721508779 0.9143688672763406 -0.09783756196932067 0.91466617934256 -0.09727582978429386 0.07421346360016666 -0.040198308388183446
245000000.0 0.07704466907482456 -0.045948729083744616 0.914217241401723 -0.09962763139035043 0.9143536694072302 -0.09903968815384216 0.07411238459988553 -0.040897215212456726
250000000.0 0.07712994167353796 -0.04683456481559538 0.9138569259837208 -0.10145681453107412 0.9141429674128696 -0.10104300839083892 0.07385604630854031 -0.04172807391680005
255000000.0 0.07679553166859482 -0.04775518086645572 0.9134998930263927 -0.10343321026035904 0.9139818544918631 -0.10282632299749694 0.07366591517935299 -0.04254632874409873
260000000.0 0.07652263776790075 -0.04882308615186517 0.9131562091537311 -0.10516772641561616 0.9136915205625538 -0.10474122859515242 0.07346118915057902 -0.043281204646669146
265000000.0 0.0763655032578678 -0.04959394837487022 0.9129332322654153 -0.1070690822177633 0.9131938806008183 -0.10671126091647773 0.07321150099407488 -0.044206465514478085
270000000.0 0.07602313199467323 -0.05082814962714602 0.9126161355816634 -0.10894739148037612 0.912962968697519 -0.10850922317817285 0.0729176017071141 -0.04508505547833719
275000000.0 0.07585908262835145 -0.051622421054210534 0.9123286643112485 -0.11092315038778436 0.912704170259423 -0.11032553426058073 0.07271687115598188 -0.04605495463727928
280000000.0 0.07557919171206137 -0.05278541364798048 0.9118986694758596 -0.11273339874459784 0.9123429698518362 -0.11218866774464453 0.07220699616833277 -0.047111097522442066
285000000.0 0.07535024262525412 -0.05387717642067185 0.9113972172737163 -0.11450619071408503 0.9117702195531759 -0.11431552308788012 0.07189688020351774 -0.048012302652003604
290000000.0 0.0750318978075379 -0.054731072459834954 0.9111251802540492 -0.11627060612245373 0.9114744105850398 -0.11604307063143555 0.07176270862370437 -0.048729359447701306
295000000.0 0.07475226896778901 -0.0555673271581124 0.9106643191788806 -0.11825352065424664 0.9111428867339253 -0.11792529553453834 0.07151824073652398 -0.04985161357774614
300000000.0 0.07451155534231452 -0.05664317763581163 0.9105005307812037 -0.11997983031247618 0.91075819544988 -0.11980499645964873 0.07140746106190689 -0.05066308620677509
305000000.0 0.07424000568000526 -0.05753713616992553 0.9100755444474671 -0.12203339326507931 0.9105144177712865 -0.12154452540097212 0.07113135805741062 -0.051321032313713245
310000000.0 0.0739006421896324 -0.058393017827356 0.9097298427306296 -0.12388739401430385 0.9100255384979272 -0.12339001307360571 0.07103284702687224 -0.0521800733122552
315000000.0 0.07355754197786733 -0.059164022065917136 0.9094423652987724 -0.12570068011380864 0.9097213697310526 -0.12520026647246843 0.07081444167734931 -0.05286307822251332
320000000.0 0.07340102532290532 -0.05985957320256952 0.9089701720658011 -0.1275056410554394 0.9092559840400735 -0.12722115897486733 0.07075975355679805 -0.05378358138334196
325000000.0 0.07322342816420084 -0.06057433177041052 0.90874546683379 -0.1293301856452825 0.9090372873265014 -0.12885475980838298 0.07061313304365295 -0.05439254934209835
330000000.0 0.07287195404050605 -0.06135397174220794 0.9084352303051472 -0.13122359764797417 0.908700885295815 -0.13060639391076317 0.07021875874022603 -0.054888898432795194
335000000.0 0.07271683515468715 -0.06195549431397946 0.9079803172950333 -0.13295438138342786 0.9083221627366181 -0.13250916067201962 0.07001997690992921 -0.055599059390517444
340000000.0 0.0724831309656788 -0.06271625506377536 0.9078712464590947 -0.13486583422969342 0.90801632107327 -0.13425065769870023 0.06979043064959203 -0.05624896863941221
345000000.0 0.07239536844382037 -0.06355478182428208 0.9073142374834244 -0.1365036506981341 0.9075210069561085 -0.13605783681115413 0.0692932244506137 -0.0568180521194972
350000000.0 0.07221275887251655 -0.06448893024377408 0.9070683710655316 -0.13845866826963896 0.9072185228772994 -0.1378842786860902 0.06920247444741436 -0.057518586759258195
355000000.0 0.07214674827668473 -0.06512312948949311 0.9066889272671868 -0.1401055864858608 0.9068715012265444 -0.13969645130903727 0.06877113535828999 -0.05810301051794765
360000000.0 0.07186273000210301 -0.06596089915186104 0.9063454837511057 -0.14200748105547173 0.9063647973096296 -0.1414624723461059 0.06844716677935443 -0.05869199698033413
365000000.0 0.07180770958086172 -0.06699289577338832 0.9059556112330772 -0.14382255560320442 0.9062718213486418 -0.14323605151615168 0.06803611166432331 -0.05939858180329789
370000000.0 0.07176069835223205 -0.06782699021010677 0.9054412787724164 -0.14556300760421614 0.905812617729272 -0.14501953973228657 0.06760820726925727 -0.060041815108712614
375000000.0 0.07145045072051023 -0.06877125242588915 0.9052441706491965 -0.14744062006640038 0.9053916339674183 -0.1468512644255908 0.06729993909754593 -0.06083448876024616
380000000.0 0.07130190712694291 -0.06970032375314797 0.9048332550428698 -0.1490720374914702 0.904847807868457 -0.14861477909867046 0.06677352252628277 -0.061548832758415814
385000000.0 0.07109765798754715 -0.07069876633871178 0.9042632535245323 -0.15091604739500147 0.9045439937938815 -0.15031584342293386 0.06652937024934222 -0.062273964972444064
390000000.0 0.07086547532127975 -0.07159121890242766 0.9038164625663924 -0.15268855684774274 0.9040154793182534 -0.1521773977081054 0.06618741342043062 -0.06322158378923459
395000000.0 0.0706123215966263 -0.07245647413158475 0.9034193758837422 -0.15440757056476712 0.9035847802990559 -0.15391705921834764 0.06565765679139368 -0.06387064461951142
400000000.0 0.07013016937823867 -0.0731978326997276 0.9029837202417906 -0.15627819920943525 0.9032065814226827 -0.15565344413015386 0.06542506092910982 -0.06468593176807161
405000000.0 0.06978920691728073 -0.07419304156846127 0.902507785441568 -0.15798642065131177 0.9028053833674892 -0.15746378752236767 0.06521427286779027 -0.06566411371790282
410000000.0 0.06939319024676882 -0.07497519817725849 0.9020033080533506 -0.1596647478342204 0.902312330444077 -0.1593030424323467 0.06495082890322192 -0.06640665674849652
415000000.0 0.0690681088578358 -0.07580505038216362 0.9014776828636512 -0.1615401009989824 0.9019008982658882 -0.16088721859218452 0.06466101659873943 -0.0671609882104204
420000000.0 0.0686441359513029 -0.07637768765330014 0.9011074912273387 -0.16315857746627338 0.9014856639622696 -0.16274301753338238 0.06446061275020332 -0.06797213239425322
425000000.0 0.06837852076370114 -0.0770660911235016 0.9006970472551462 -0.16487290131495144 0.900953894717411 -0.16445467931064223 0.06439447527983294 -0.06846744506729902
430000000.0 0.06786862352067516 -0.07763439530985553 0.9003599971754052 -0.16669112354979898 0.9005408211739944 -0.16623127563259127 0.06422006277889561 -0.06910437420321795
435000000.0 0.06764617414149113 -0.07845894300816274 0.8998407213791181 -0.16833380561389097 0.9001010682674857 -0.16792061940593808 0.06395375232277171 -0.06982485341310916
440000000.0 0.06715706248531048 -0.0790066226037602 0.8994790286985187 -0.17014564188007256 0.8996989706484038 -0.1696448821529446 0.06385629724272578 -0.07022173068192725
445000000.0 0.06714128429618273 -0.07962305708265922 0.8990414813823498 -0.1718231855305339 0.899248411861229 -0.17130366251957585 0.06368641488023351 -0.07077607851621595
450000000.0 0.06692898776575852 -0.08015541878327857 0.8985489424333024 -0.17366080716824284 0.8987990619738108 -0.17311281722195695 0.0634568278219035 -0.07132026331014991
455000000.0 0.06653485795447427 -0.08060331295212492 0.8980638945714262 -0.17533497368905923 0.8984302327016309 -0.17469345173511536 0.06316659114837678 -0.07185851696390125
460000000.0 0.06654066941487298 -0.08157192137741337 0.8976075633029373 -0.1770806077861343 0.8979391962439689 -0.17666169428140505 0.06291247854080358 -0.07223170986555358
465000000.0 0.06637415816534428 -0.08220791555616191 0.8971608396327535 -0.17879515522882666 0.8975582088703828 -0.17837649037956754 0.06248961470020701 -0.07279971226097423
470000000.0 0.06612711091453279 -0.08270399995117782 0.8966873456617276 -0.18039838750964504 0.8971051594475896 -0.18008806892194265 0.06221096234099495 -0.07313070223900593
475000000.0 0.06618086582505152 -0.08337349057101509 0.8962885042217217 -0.18203887120806347 0.8967197398340633 -0.18183737796016164 0.06173988823328257 -0.07369528924749529
480000000.0 0.0660415373022766 -0.08423098090570129 0.8958170429235319 -0.1838506138631155 0.8962840026967843 -0.18346933956278608 0.06143732664527483 -0.07414145155148859
485000000.0 0.0658945244582339 -0.0848109411609034 0.8954499297690828 -0.18547723123504214 0.8958174594098899 -0.18522906033438827 0.06085793786122897 -0.0746578249550993
490000000.0 0.06567339375183033 -0.08560341109883894 0.8949224273059888 -0.18725769053210212 0.8952456027679412 -0.18680511361544813 0.06025568781251837 -0.07495005958378488
495000000.0 0.06564054078151764 -0.08638717106101051 0.8943605375552637 -0.18882593895812158 0.8948228550733409 -0.18858881457340607 0.0598269794998465 -0.07562505617413562
500000000.0 0.06542858059888954 -0.08705933496461833 0.8938855992558331 -0.19050484009749008 0.8943519660233894 -0.19024460482010333 0.05937556419275699 -0.07627333036228483
505000000.0 0.065129271201128 -0.08798230893180127 0.8933895909177201 -0.1922632711680217 0.8936868432679509 -0.19198062901772836 0.058989596487539785 -0.0769578040355624
510000000.0 0.06469516863088445 -0.08869941553916959 0.8928672585416092 -0.19386831791515421 0.8932365647218229 -0.1938113804818606 0.05869060392871218 -0.07762704825680602
515000000.0 0.06447515875878253 -0.08938747585919336 0.8923936502919925 -0.19567878910102318 0.8926372419099442 -0.195359780995518 0.05831199095787439 -0.07833831861587634
520000000.0 0.06396900553350408 -0.09016472175997878 0.8917874740476557 -0.19753551855121956 0.8921448064520677 -0.19709414220258428 0.05784909914730409 -0.07899997140615453
525000000.0 0.06341268625039083 -0.09077959769099599 0.8913570761328568 -0.19898711089309445 0.8916875232252836 -0.1986807181053827 0.05759198166486347 -0.07968152889596686
530000000.0 0.06302000437500098 -0.09135344738395168 0.8907701528183212 -0.20077868410050437 0.8912008232375619 -0.2003161921295044 0.05718186809353012 -0.08027583307960798
