! Mini-Circuits
! S9P DATA File Format
! Type: 8 Way 0 degree Power Splitter
! Model: JCPS-8-10+
! PINOUT: SUMPORT=PORT9 , OUT1 PORT=PORT1 , OUT2 PORT=PORT2 , OUT3 PORT=PORT3 , OUT4 PORT=PORT4 , OUT5 PORT=PORT5 , OUT6 PORT=PORT6 , OUT7 PORT=PORT7 , OUT8 PORT=PORT8
! TEST CONDITIONS: INPUT POWER = 0 dBm @ Temperature = + 25 deg C
! 401 Frequency points
! All S Parameters are in dB deg format
!
! Created with skrf (http://scikit-rf.org).
# MHz S RI R 50.0 
!freq ReS11 ImS11
5.0 -0.11919084529706694 0.04608754578315049
9.99 -0.11209174707385423 0.027760665690223126
14.98 -0.11067201151119249 0.022717701384160977
19.96 -0.11020697404875565 0.021741624063616155
24.95 -0.10984230594820547 0.022247864188042085
29.94 -0.10952511887719724 0.02376021826256137
34.93 -0.10884285598880591 0.025609041418554843
39.91 -0.10780933552036716 0.02766067678059581
44.9 -0.10685236398265546 0.02975331946929492
50.0 -0.10567887571536017 0.03196672045715859
54.88 -0.10445627319351773 0.03416175261295873
59.86 -0.10308470600168151 0.03624119800985636
64.85 -0.10178631402919543 0.03834008129362356
69.84 -0.10032527653061124 0.04037118773649217
74.83 -0.09880568463628107 0.04240942236669533
79.81 -0.09727211460652094 0.04434996130633676
84.8 -0.09560256787914719 0.04617492367798953
89.79 -0.09395420608296286 0.04812018802163436
94.77 -0.09232284995269781 0.049918778751345705
99.76 -0.09055699784596472 0.05161091335460552
104.75 -0.08866380043325998 0.05342212598827485
109.74 -0.08691346376670539 0.054901957234785075
114.73 -0.08513417608841115 0.05656301135862029
119.71 -0.0832620598067583 0.05806281599399021
124.7 -0.08128651663632804 0.05942740168052743
129.69 -0.07928647975785458 0.06075075938482451
134.68 -0.07727344591746109 0.06201849712981652
139.66 -0.07522668852604783 0.0632570480128746
144.65 -0.07322500786792041 0.06437504298488517
149.64 -0.07111260651180183 0.0655519178710521
154.63 -0.06906001643368305 0.0665973711771804
159.61 -0.06691219335208382 0.06752224165440868
164.6 -0.06476381891897338 0.06839011536333327
169.59 -0.06273666277915219 0.06923745248935763
174.58 -0.06053156382255967 0.06990419808596775
179.56 -0.05851869647251721 0.07063648900964253
184.55 -0.05627724642240193 0.0712337889294278
189.54 -0.05420848744501164 0.07165047237396553
194.53 -0.052014501849821856 0.0721198854499446
199.51 -0.04991474379432518 0.07235554023641795
204.5 -0.04780093312721374 0.07268699844110625
209.49 -0.04558594765469765 0.07292444121832918
214.48 -0.043506276022502996 0.07304041335230438
219.46 -0.04137183868663587 0.07315426512730885
224.45 -0.03938180243708046 0.07326242792861923
229.44 -0.03728608324557263 0.07317805868690043
234.43 -0.03520631954780694 0.07305541347122683
239.41 -0.03323222770637782 0.0728540651406843
244.4 -0.031262262541618034 0.07262504986942045
249.39 -0.02926342111704752 0.07228417667313859
254.38 -0.02747542357172184 0.07183813361515741
259.36 -0.02555431730723366 0.07133120978249627
264.35 -0.023714998722752192 0.07095896596294908
269.34 -0.021869035335264728 0.07038642346666919
274.33 -0.0200884881207639 0.06968949209837155
279.31 -0.018372043602256544 0.06904721582823485
284.3 -0.016572728059463613 0.06824282177794547
289.29 -0.01502111320886125 0.06753271119385745
294.28 -0.013479199775701625 0.06672915682645483
299.26 -0.011908658963503148 0.06592145129638986
304.25 -0.010436726720547858 0.06508591996028262
309.24 -0.009017669171936105 0.06408289392563897
314.23 -0.0077097173999245905 0.06306357258583872
319.21 -0.006389871091597194 0.062045314064605846
324.2 -0.005139395442350022 0.06094827722920217
329.19 -0.0039033771382276134 0.05971371716735712
334.18 -0.002764269507170611 0.058616193340450824
339.16 -0.0016230597778745283 0.057388699224952135
344.15 -0.000628128227002168 0.05623062435273881
349.14 0.0004993151566087588 0.055015126215211804
354.13 0.0013902432204385984 0.053809021655195965
359.11 0.0023861715011063967 0.05254757683260781
364.1 0.002971418097093294 0.05137772681910876
369.09 0.003853923525486702 0.050086206144409416
374.08 0.004452628144512785 0.04883172025040306
379.06 0.005090994706487291 0.04748077342355467
384.05 0.00559502599807352 0.04616724171756314
389.04 0.006098718287845394 0.04492990353016174
394.03 0.006557314006538326 0.043667450495508686
399.01 0.006991930691487474 0.04228062497827797
404.0 0.0072687191151530745 0.041097111769765805
408.99 0.007671146062459286 0.0397236710226563
413.98 0.007877706011121942 0.038651098038832064
418.96 0.008076974292649242 0.03742072056002923
423.95 0.008266109883279853 0.03626620749912132
428.94 0.00827260460745098 0.034968318327055915
433.93 0.008326721696334192 0.03382387553573326
438.91 0.008315679427763232 0.032647515852312424
443.9 0.008279366202652036 0.03151424523102383
448.89 0.008218929291774908 0.030460706141656205
453.88 0.008124638653361944 0.029376123527998607
458.86 0.007949293059416312 0.028280510738359833
463.85 0.007714076006912577 0.02724281730561754
468.84 0.0075159417714244095 0.02633258112341085
473.83 0.007208638456254277 0.025390195858200477
478.81 0.0069350806045930125 0.02447544223821872
483.8 0.0065633476708541446 0.02368271725811617
488.79 0.006180966742176821 0.022781163250897307
493.78 0.00583754980379204 0.02201642684945058
500.0 0.005273513543962935 0.021025797571242205
503.75 0.0048927533045312385 0.020411169212163023
508.74 0.004404363126261562 0.019768805943673855
513.72 0.003931898133818252 0.01912082635397984
518.71 0.003478694615061523 0.01853456237260883
523.7 0.002990842287986382 0.017949539935357223
528.69 0.0024181631393088137 0.017494040283510315
533.68 0.001958086830868996 0.01702735625864833
538.66 0.0014983571340535266 0.016528091124889392
543.65 0.0009494403673711818 0.016171592912488552
548.64 0.00047354088168811016 0.015678409340495372
553.63 -8.025989781533594e-06 0.015328509962430096
558.61 -0.0005021463324996541 0.015057700164671213
563.6 -0.001102597897672161 0.014732863572990454
568.59 -0.001616515945610952 0.014549087129768368
573.57 -0.0021088299364408047 0.014350285024201378
578.56 -0.002605579496723071 0.014099645920542494
583.55 -0.003093402739629458 0.014034560024151306
588.54 -0.0035414357202306936 0.013843122028878711
593.53 -0.004008035937024541 0.013715299573632095
598.51 -0.004397468503667454 0.01364739280440286
603.5 -0.004813879961453221 0.013593977652883232
608.49 -0.0052680340030911 0.013567753361081042
613.48 -0.005657997311772264 0.013519249751115302
618.46 -0.006025216360059417 0.013545580648054731
623.45 -0.0063375621742318726 0.013553871016967048
628.44 -0.006690738090368686 0.013615366522680916
633.43 -0.007073172663749913 0.013599026088423083
638.41 -0.007384874655471593 0.01367514935082858
643.4 -0.007598684468782134 0.013804829041804408
648.39 -0.00793163305748383 0.013827019476241438
653.38 -0.00815251629328933 0.013912312331319305
658.36 -0.008313756509585084 0.013968619417520334
663.35 -0.008510940176148675 0.01404769876394388
668.34 -0.008815575497747108 0.014173840182057158
673.32 -0.009058732469858949 0.014318429531271649
678.31 -0.009316770935101073 0.014456798608198516
683.3 -0.009480737342601535 0.014587904655937792
688.29 -0.009771108413205894 0.01466224400254656
693.28 -0.009948513695942239 0.014838492536363858
698.26 -0.010186470396596028 0.014977687203717118
703.25 -0.01029118907241728 0.01500741646514651
708.24 -0.010436582033582673 0.015111752516341982
713.23 -0.010505942260389377 0.0151668509230613
718.21 -0.01064098012487865 0.015333194612276642
723.2 -0.010836460012806718 0.015407288003552613
728.19 -0.011042547054735443 0.015555616049233173
733.18 -0.011203549172571688 0.015794096624474983
738.16 -0.011358792981660905 0.015848256002485947
743.15 -0.011532927503949362 0.015973163405515408
748.14 -0.011706505260504778 0.016100800254683408
753.13 -0.01189974552111725 0.016187694384941147
758.11 -0.012049364894442915 0.016337390389468468
763.1 -0.012241032351289611 0.016458546574929553
768.09 -0.012336895631879008 0.016623763910906707
773.07 -0.01253544625382637 0.016774781220403934
778.06 -0.012630482499584303 0.016975989396911657
783.05 -0.012731735197743366 0.01720595262021479
788.04 -0.012841274714973651 0.01752611494194219
793.03 -0.012920499599847817 0.017685987072454327
798.01 -0.013183224337813555 0.017966494302150787
803.0 -0.013290199398337157 0.01827226313098201
807.99 -0.013551480428177507 0.01853610637721808
812.98 -0.013669733669635769 0.018745883919343866
817.96 -0.01380084025941207 0.019016157535499862
822.95 -0.013943854258357478 0.01924852989799452
827.94 -0.014059375429910072 0.019572899122055308
832.93 -0.014169278975191341 0.019871931885254913
837.91 -0.0142536400308566 0.020228300412924848
842.9 -0.01424878115046202 0.020616270141312072
847.89 -0.014267479237556306 0.021096764438039744
852.88 -0.014276391496322621 0.021552924706692178
857.86 -0.014265619376857677 0.022025993737829378
862.85 -0.014264177308796441 0.022642364185661328
867.84 -0.01418527045449525 0.023166405251180532
872.82 -0.014155768348819122 0.023737101887809756
877.81 -0.01405409398389367 0.02420562093932101
882.8 -0.01399068000973357 0.02472844320037312
887.79 -0.013797643785288903 0.02521235759605709
892.78 -0.01361117935909811 0.02565288588480324
897.76 -0.013409691651446162 0.026137305094062497
902.75 -0.01304700960655181 0.02658526587172262
907.74 -0.01269789844343478 0.02709479914429724
912.73 -0.012311566066269874 0.02765223012919342
917.71 -0.011834492396556767 0.028125658484445676
922.7 -0.01136610589138021 0.028736809546074663
927.69 -0.010855717474966527 0.029315364897260214
932.68 -0.010380341436586817 0.029909091422806195
937.66 -0.009827383539919127 0.03048072274423188
942.65 -0.00927189336759438 0.030963724139721305
947.64 -0.008717637860452234 0.031434786596354146
952.63 -0.008061409094418511 0.03188177590270599
957.61 -0.007384101089770625 0.0323184295801725
962.6 -0.0066189381778884605 0.032679066459721316
967.59 -0.005782961502630705 0.03303274633187525
972.57 -0.004886621552189362 0.03333364284739959
977.56 -0.003959193243378625 0.0336523165674886
982.55 -0.0030152158890724497 0.033985798542226074
987.54 -0.0020006665090277534 0.03417883407999437
992.53 -0.0011189586260287611 0.03445649661573641
997.51 -0.00016301948784163976 0.03459355367628235
1000.0 0.0003388897863512726 0.03467202890414865
1007.49 0.001782607311413371 0.034828268860505586
1012.48 0.002845379435700586 0.034757586459840104
1017.46 0.003931209009149944 0.03461118960959527
1022.45 0.00505891106471725 0.03438344447471866
1027.44 0.006209231895334972 0.03423512191917003
1032.43 0.00737472249621588 0.03388034685066286
1037.41 0.0085973142595842 0.033508606638133945
1042.4 0.00980812135094172 0.03313289694592784
1047.39 0.010944676216608527 0.032691226498108364
1052.38 0.012110038786959753 0.03223531772366281
1057.36 0.013121198069332752 0.031708676016922344
1062.35 0.01421414611771579 0.031060709380263486
1067.34 0.015342937436672264 0.030387030571766747
1072.33 0.01634655473120595 0.029636178732509098
1077.31 0.017297075119579886 0.028685007348954496
1082.3 0.01821207884562836 0.027746341987044554
1087.29 0.01920261986877995 0.026742967378291085
1092.28 0.02001437251179475 0.025617228620066868
1097.26 0.020923442951435767 0.02448954778831217
1102.25 0.02165055656072783 0.023298773677398205
1107.24 0.022329126027785886 0.02213511295413226
1112.23 0.023034414083154257 0.020974406668396485
1117.21 0.023609384298548287 0.019663617401927475
1122.2 0.02398836688864159 0.01846019350217987
1127.19 0.02449640121344826 0.017363682362786056
1132.18 0.024946579898041898 0.01602156884395209
1137.16 0.02516936213544285 0.014619528851352639
1142.15 0.025368537853237803 0.013296196129670288
1147.14 0.025453080903414544 0.011874375358004643
1152.13 0.025460447044060516 0.010504437697743447
1157.11 0.025437825488410726 0.00916821236144642
1162.1 0.02535690920923692 0.007752385132225386
1167.09 0.025133526647345927 0.006425145488739581
1172.08 0.024827705734919426 0.005268234377419667
1177.06 0.024533484450207244 0.004189178416852309
1182.05 0.02434208827074824 0.0031658055362669196
1187.04 0.024008446570346446 0.00208780046942525
1192.03 0.023584591253769115 0.0009761169625446206
1197.01 0.023040917126956183 -2.4128400812590342e-05
1202.0 0.022520418825114998 -0.0009950771336770861
1206.99 0.021891927557248392 -0.0019499512475857697
1211.98 0.02124704036062087 -0.002785908963160176
1216.96 0.020737369265996397 -0.003395874449831889
1221.95 0.02023484724316307 -0.004138897902515646
1226.94 0.019753717538823927 -0.004778927221304066
1231.93 0.01929907016143177 -0.005330347880902052
1236.91 0.018823495144156755 -0.005816046470632372
1241.9 0.01841030724627897 -0.006074371686524653
1246.89 0.018054164271265334 -0.006428798718598273
1251.88 0.017788994957168 -0.0065803490461824165
1256.86 0.01750563633302356 -0.0068956535338835275
1261.85 0.017316486314675694 -0.007133805132341203
1266.84 0.01724210957532197 -0.007311739283177339
1271.83 0.01725713836605002 -0.007604110334811666
1276.81 0.01741265625880285 -0.007738052518746262
1281.8 0.01764722216753447 -0.0079717345675307
1286.79 0.01801873001840569 -0.008299123084976105
1291.78 0.01858560379953076 -0.00850915378010584
1296.76 0.019250604517162033 -0.008899105607706239
1301.75 0.020103852757668295 -0.009434453256703793
1306.74 0.021018442173524762 -0.009948839708417067
1311.73 0.022082220627909536 -0.01065594996345255
1316.71 0.023130466823121264 -0.01161318707164459
1321.7 0.024303879323664204 -0.012549539845425464
1326.69 0.02564082992980531 -0.0138465994217755
1331.68 0.026934573599879403 -0.015294749965547427
1336.66 0.028267586818337947 -0.017099236003882832
1341.65 0.029675624053220665 -0.019000253804734375
1346.64 0.031115731086226468 -0.02123367138906347
1351.63 0.03253912898083868 -0.023727940966870132
1356.61 0.03391001485834196 -0.02644578437643903
1361.6 0.03514902881320234 -0.029713749489708865
1366.59 0.03622823587746035 -0.03312733544814146
1371.58 0.03721528868835454 -0.036917698207564735
1376.56 0.03773603426649855 -0.0409945277563482
1381.55 0.03818380485448506 -0.04536079201378198
1386.54 0.03819976253516035 -0.050035572194307466
1391.53 0.03787464056294691 -0.05506675515896327
1396.51 0.03712755691394437 -0.06037359035891184
1401.5 0.03581426482541804 -0.06568800841832495
1406.49 0.03398615533784203 -0.07118949428843885
1411.48 0.031533258691129246 -0.07665727621342051
1416.46 0.028776666883984607 -0.08231139782830807
1421.45 0.025363554801178828 -0.08793169456525005
1426.44 0.021247173983886557 -0.09321850681276199
1431.43 0.016711291409414977 -0.09859377637269817
1436.41 0.011510123749967233 -0.10359427246441329
1441.4 0.0058550033836779055 -0.10810953977729454
1446.39 -0.00015702442561902014 -0.1124603877729455
1451.38 -0.006713728336854495 -0.11608467376773594
1456.36 -0.013693410808588172 -0.11944407983607443
1461.35 -0.02102732022437713 -0.12237179549911448
1466.34 -0.02858336741646273 -0.12440237712171229
1471.33 -0.036298948951318966 -0.12625674328498887
1476.31 -0.044267424670947464 -0.12726174500113277
1481.3 -0.052245760171177734 -0.12776927535119018
1486.29 -0.060165229680982264 -0.12779971943288237
1491.28 -0.06794754826528218 -0.12720101240074352
1496.26 -0.07583043340437695 -0.12600369283070462
1501.25 -0.08344855914302435 -0.1246069180876847
1506.24 -0.09101068741484068 -0.12290413810312378
1511.23 -0.09868645201432846 -0.12052835823841548
1516.21 -0.10584715808402524 -0.11747268934735294
1521.2 -0.11281189918174851 -0.11443809378591102
1526.19 -0.11970336918795856 -0.11080773440080524
1531.18 -0.1262096778962676 -0.10688219902484929
1536.16 -0.13241808774023572 -0.10256601005565327
1541.15 -0.13838922795313874 -0.09809386185634093
1546.14 -0.14410556091387727 -0.093154729625953
1551.13 -0.14915872046678078 -0.08838800334318601
1556.11 -0.15442520626329542 -0.08314940660008187
1561.1 -0.15963319621011857 -0.07789280391337862
1566.09 -0.16427402906014896 -0.07228230273849663
1571.08 -0.16867796318879202 -0.06658008577704619
1576.06 -0.17283866782038673 -0.060832198138563796
1581.05 -0.17679311183990767 -0.05496339018480318
1586.04 -0.18034182271434587 -0.048896406083944945
1591.03 -0.1836443509564044 -0.042870551882375985
1596.01 -0.1867790950394374 -0.03657689841851913
1601.0 -0.1896755402582307 -0.03034714623755136
1605.99 -0.19216151042953838 -0.023900923287328717
1610.98 -0.19419427168530629 -0.017536375813422145
1615.96 -0.19647601040662827 -0.011087913548374802
1620.95 -0.1983299042725295 -0.004500735142955568
1625.94 -0.19997371082521795 0.002233820695991831
1630.93 -0.2014125143523058 0.008793860290195944
1635.91 -0.20241975341103383 0.015362139784199345
1640.9 -0.2034513451671286 0.022065961603287356
1645.89 -0.20405259202305773 0.02871403982902501
1650.88 -0.2047114795611735 0.035286227039055526
1655.86 -0.20494197200924408 0.041844935473572216
1660.85 -0.2049711189901262 0.04845311933280234
1665.84 -0.20455083621568254 0.05507716765392186
1670.83 -0.2042005484466812 0.06165178042100198
1675.81 -0.2036242935057569 0.06832938277431846
1680.8 -0.20291743973742607 0.0748199624373594
1685.79 -0.20175243797772596 0.0813085460833724
1690.78 -0.20041712534593317 0.08772676387703104
1695.76 -0.1991791655016203 0.09410903275610821
1700.75 -0.19748551016199853 0.100450290648238
1705.74 -0.19561556433859423 0.1067416654054401
1710.73 -0.1934673693937047 0.11264590690569734
1715.71 -0.19130354654335352 0.11875194275213105
1720.7 -0.18891089887837767 0.12489519880323599
1725.69 -0.18613703201005666 0.13081929716041096
1730.68 -0.18341709937331063 0.13681451427409339
1735.66 -0.18040389837604962 0.14247441394244098
1740.65 -0.17716946223297309 0.14813666393179373
1745.64 -0.1740164149970377 0.1538484629857949
1750.63 -0.17029540032502752 0.15913676438014543
1755.61 -0.16660831838914483 0.16452770203107664
1760.6 -0.16274658633098252 0.16947357483008313
1765.59 -0.1591376398770453 0.17470612767744276
1770.58 -0.15495044390396936 0.17951181702884558
1775.56 -0.15065365144113324 0.18419393641289838
1780.55 -0.1464532827571069 0.18894258291040064
1785.54 -0.14187906666803432 0.19342782678591816
1790.53 -0.13720577429988814 0.19778130634985772
1795.51 -0.13243808216966813 0.20200164558387812
1800.5 -0.12743673976476733 0.20617665389443254
1805.49 -0.12266925559707549 0.21034444653771905
1810.48 -0.11735368851804862 0.21399608908601545
1815.46 -0.11228819151900327 0.21764758135789744
1820.45 -0.10692101877834721 0.22127530065743514
1825.44 -0.10163849159436505 0.2243730152787378
1830.43 -0.09599064411513225 0.2274631529861022
1835.41 -0.09051614123423098 0.2306144589841326
1840.4 -0.08496887795933816 0.2333233592345167
1845.39 -0.07930207652420634 0.23591373034782664
1850.38 -0.07330952919796288 0.2384444200347095
1855.36 -0.06761744481211639 0.24071798942881065
1860.35 -0.06164630957082739 0.24291061812450584
1865.34 -0.055757372990214035 0.24521888282685755
1870.33 -0.04964854821556892 0.24711963670510015
1875.31 -0.043609694787087615 0.24884642480781588
1880.3 -0.03725442056069244 0.2501711248264913
1885.29 -0.03124674822270021 0.2515798331687362
1890.28 -0.025119680905493033 0.25255876184112863
1895.26 -0.01867534335978369 0.25370355363150215
1900.25 -0.012396809459946168 0.2543811362307308
1905.24 -0.005918205012537334 0.2549077164068178
1910.23 0.00035642422459977155 0.25526988143503415
1915.21 0.00665295650298263 0.2557720773980165
1920.2 0.013093497917113896 0.2558184648194596
1925.19 0.019339691860699334 0.2560143860082189
1930.18 0.025707660565332316 0.25575077905847565
1935.16 0.03207446702820317 0.255328962193937
1940.15 0.03830279369117103 0.2547689208589668
1945.14 0.04456719993812488 0.25404936589145294
1950.13 0.050775161496222534 0.25318483346439763
1955.11 0.056901901299023235 0.25187864250451736
1960.1 0.06308256375740617 0.2504022105955836
1965.09 0.06913818194663784 0.248798289219351
1970.08 0.07536917649739147 0.24729310340356542
1975.06 0.08126009649339537 0.24542043206454006
1980.05 0.08723199524271227 0.24336181040343383
1985.04 0.09315181470805328 0.24115789676777732
