! Mini-Circuits
! S9P DATA File Format
! Type: 8 Way 0 degree Power Splitter
! Model: JCPS-8-10+
! PINOUT: SUMPORT=PORT9 , OUT1 PORT=PORT1 , OUT2 PORT=PORT2 , OUT3 PORT=PORT3 , OUT4 PORT=PORT4 , OUT5 PORT=PORT5 , OUT6 PORT=PORT6 , OUT7 PORT=PORT7 , OUT8 PORT=PORT8
! TEST CONDITIONS: INPUT POWER = 0 dBm @ Temperature = + 25 deg C
! 401 Frequency points
! All S Parameters are in dB deg format
!
! Created with skrf (http://scikit-rf.org).
# MHz S RI R 50.0 
!freq ReS11 ImS11 ReS12 ImS12 ReS13 ImS13
! ReS14 ImS14 ReS15 ImS15 ReS16 ImS16 ReS17 ImS17
! ReS18 ImS18 ReS19 ImS19
! ReS21 ImS21 ReS22 ImS22 ReS23 ImS23
! ReS24 ImS24 ReS25 ImS25 ReS26 ImS26 ReS27 ImS27
! ReS28 ImS28 ReS29 ImS29
! ReS31 ImS31 ReS32 ImS32 ReS33 ImS33
! ReS34 ImS34 ReS35 ImS35 ReS36 ImS36 ReS37 ImS37
! ReS38 ImS38 ReS39 ImS39
! ReS41 ImS41 ReS42 ImS42 ReS43 ImS43
! ReS44 ImS44 ReS45 ImS45 ReS46 ImS46 ReS47 ImS47
! ReS48 ImS48 ReS49 ImS49
! ReS51 ImS51 ReS52 ImS52 ReS53 ImS53
! ReS54 ImS54 ReS55 ImS55 ReS56 ImS56 ReS57 ImS57
! ReS58 ImS58 ReS59 ImS59
! ReS61 ImS61 ReS62 ImS62 ReS63 ImS63
! ReS64 ImS64 ReS65 ImS65 ReS66 ImS66 ReS67 ImS67
! ReS68 ImS68 ReS69 ImS69
! ReS71 ImS71 ReS72 ImS72 ReS73 ImS73
! ReS74 ImS74 ReS75 ImS75 ReS76 ImS76 ReS77 ImS77
! ReS78 ImS78 ReS79 ImS79
! ReS81 ImS81 ReS82 ImS82 ReS83 ImS83
! ReS84 ImS84 ReS85 ImS85 ReS86 ImS86 ReS87 ImS87
! ReS88 ImS88 ReS89 ImS89
! ReS91 ImS91 ReS92 ImS92 ReS93 ImS93
! ReS94 ImS94 ReS95 ImS95 ReS96 ImS96 ReS97 ImS97
! ReS98 ImS98 ReS99 ImS99
!
5.0 -0.11919084529706694 0.04608754578315049 0.01351949576068516 -0.0051139854773180615 4.211794891236643e-06 -0.003016473932774212 0.001742545990530929 -0.003218742043896024
 0.007207411108458383 -0.0033823359146251974 0.006854308875572589 -0.002977493797127022 0.006931624952468625 -0.003060101589661221 0.006938472995596079 -0.0030877562773977255
 0.34148252199060086 -0.00840528887278988
 0.013447212097247542 -0.005070552474108941 -0.13481523049374566 0.05166974412449834 5.155085837682298e-05 -0.002760096485497333 0.0017372987810471666 -0.0030470445768803318
 0.007077577065097118 -0.003231406870544567 0.006740416930161908 -0.0028541978485943963 0.006829008614688814 -0.002949517293063339 0.006809186859399582 -0.0029522438846274796
 0.33568123864216554 -0.006152368748093369
 -0.0001294016440581001 -0.0029998277601513443 6.4994333340212e-05 -0.002737648229769161 -0.13136640231692964 0.054951756455270825 0.012437813846295562 -0.006452659483383818
 0.007125464606558562 -0.0032127802027587245 0.006742182090560602 -0.0028716128385889847 0.006854004855254056 -0.0029347986593962778 0.0068524672588074305 -0.0029383870054866057
 0.33607005808535406 -0.006042145793217322
 0.0017031301073815832 -0.0031923607357760286 0.0017241330107139513 -0.00304987830461324 0.012458575082566896 -0.006482760254978497 -0.15158856991459302 0.06372196726668897
 0.005471066181129404 -0.0029953212417251937 0.005385084398752298 -0.002929949905230299 0.006805804417224868 -0.0029169714991010513 0.006725093254069708 -0.002825587841626152
 0.3288370256243293 -0.0030993077191558767
 0.007213303417761086 -0.0033697514639820262 0.007097844279124981 -0.003230186792921527 0.007129737828914225 -0.003225194205536589 0.005335646795261201 -0.0029758845837483247
 -0.11708087040771367 0.038698127627794995 0.007535944748597206 0.00030794452499487536 -0.003530339317501689 0.0004923874037656991 -0.003483969528802578 0.00036925415902766036
 0.3364289057592923 -0.0074583974928203855
 0.00683861255700316 -0.0029919814819600295 0.006728905168094656 -0.0028812325470401034 0.006758449122423577 -0.0028548806824875888 0.005278749250028216 -0.0029056172893787502
 0.007568001374790753 0.0003701370177354402 -0.1314965649780695 0.04199119644164503 -0.0048949522777793015 0.0007280622340917657 -0.004881345286043839 0.0004648614831182938
 0.33031719140721755 -0.005881046311945516
 0.006902392276858657 -0.003061602208719602 0.0068248836562274096 -0.002959049509645572 0.006841505320464624 -0.0029421720285947423 0.006817963256026609 -0.002888437905089256
 -0.003513947581710339 0.0004913517181548472 -0.005009618609500039 0.0007406495477134269 -0.13466590846180662 0.054326555177824386 0.011550897395034015 -0.009942356310508433
 0.33147435296073663 -0.0050336142594665815
 0.006948622258769642 -0.003086462934412599 0.006843557676626844 -0.0029373950402478803 0.006846629956557637 -0.0029302268741103693 0.006724294643836615 -0.0027839191676548402
 -0.0034896749240746943 0.00039142975943755873 -0.004966292604462653 0.0004738258643040255 0.011592442382309066 -0.009893884942152653 -0.15024092058195151 0.06057929692999219
 0.3250801476439226 -0.0021560447980816157
 0.34148687617967705 -0.008226487898378406 0.3356833657730806 -0.006035193518619627 0.3360679285040788 -0.006159456003345592 0.3284621928847001 -0.002694451401859906
 0.33604309566599627 -0.007391165164831639 0.3306913550893 -0.006234123548013358 0.3310902706578889 -0.0052011815969460985 0.3250785632207656 -0.0023829930106014792
 0.019647582312832257 0.028279696911877268
9.99 -0.11209174707385423 0.027760665690223126 0.01269478090945971 0.000527629930411261 -0.00037227894989471657 -9.163315583132774e-06 0.0012612661407828808 -0.00045159865915122394
 0.006776803694087783 -0.0018107692453604614 0.006448315496121987 -0.0015731222498993507 0.006524140900228115 -0.001650861443105635 0.0065102840742022414 -0.0016425199320966144
 0.34073714647547637 -0.024065716649333505
 0.012562704227066422 0.0005506963140296893 -0.12692175406951262 0.03148049387828954 -0.0003095482073659085 0.0004015214634280942 0.0012677477361332282 -0.0002676185637276191
 0.00666927254704893 -0.0017161008767563625 0.0063681427913593255 -0.0015171056089152714 0.006444716078880765 -0.001555569415486871 0.0064329365297821905 -0.0015717497832964614
 0.33533398245980595 -0.023037180272905022
 -0.0005032630801789017 -1.5463996205235655e-05 -0.0002976854001956546 0.00036357100518639085 -0.12185943358368971 0.03439087602203141 0.010633110189944927 -0.0009807886849909188
 0.006680836257317649 -0.0017029238083926385 0.006396496349201845 -0.0014955741831898417 0.006461743378031147 -0.0015501345915119465 0.006433484782028868 -0.001569504169125261
 0.3353579230667513 -0.022686006780275558
 0.0012270464037465673 -0.0004388630487001142 0.0012490764197634423 -0.00024823012498460085 0.010616857242657773 -0.0010222870787446612 -0.13982337691575009 0.04041082305968421
 0.005068625802668646 -0.0013837669726962962 0.004977656295085844 -0.0013300351227496527 0.006434202545218427 -0.0015340300267367392 0.006319122987459551 -0.0014961066179315229
 0.32893377182251876 -0.02109824912919719
 0.0067488027014559636 -0.0017906733669654491 0.0066521370343132 -0.001719120997218601 0.006692972737123641 -0.0016873691417888502 0.004957535274571643 -0.0013590186071563957
 -0.11168243092372622 0.02547613811312756 0.007990988854727758 0.0034895164160145403 -0.0032327778157165196 0.0018484333590719536 -0.0032076543900642048 0.001637909040130558
 0.33568362973109284 -0.023591037580281478
 0.006444729599952982 -0.0015877489518639981 0.006330799459692938 -0.0015117125408310203 0.006357698505218845 -0.0014958681749730873 0.004872366706615835 -0.001314665433527484
 0.007990287032857465 0.00346598768541785 -0.12583904441339336 0.02757542339656127 -0.004580123963570343 0.0024240274204129345 -0.004595763383250077 0.0019849562855385372
 0.32998025569467476 -0.0225536577717775
 0.006518643750645336 -0.001640999113243108 0.0064549181502356395 -0.0015783144202248837 0.006442685079288856 -0.0015312996919634478 0.006405172696843805 -0.0015247460648775283
 -0.003242299565074332 0.0018403857863101205 -0.004681122148914279 0.002438915150890225 -0.12530033920861888 0.034137299953166396 0.008918563640963932 -0.0025220179881626096
 0.3311532146217944 -0.0221693346718669
 0.0065010090232153804 -0.0016788544112632923 0.006396492395027311 -0.0015924532826789345 0.006429622671633893 -0.0015531139096140523 0.0063014493510047 -0.0015058666859397408
 -0.0032064089237215606 0.0016584961858267092 -0.0046430191790358165 0.001977542775506011 0.008932354182897315 -0.0025124537746468076 -0.13976651272678114 0.03750261962454703
 0.32521848994110414 -0.020062141468457775
 0.3403534541897708 -0.02391922160398928 0.33533398245980595 -0.023037180272905022 0.33572027229803675 -0.023063718080304194 0.32895930270265233 -0.02069636506953002
 0.3356877420311153 -0.02353244937542835 0.329960448270689 -0.022841611243854712 0.3303799569351671 -0.02229133620570254 0.3251901609012722 -0.02051621243985348
 0.024721319773343336 0.018007276940494244
14.98 -0.11067201151119249 0.022717701384160977 0.013183024475480096 0.003760258948426237 -9.664724377368716e-05 0.0015984815753672828 0.001433485140384941 0.0009752931123122908
 0.006778039047553444 -0.0013457763690932845 0.006483238595074422 -0.0011910666381418722 0.0065475916417464045 -0.0012206179115824502 0.006527808397363658 -0.001242884653795275
 0.33872258874547284 -0.037574848736882285
 0.013094884927025222 0.0037821203387963984 -0.1254060886510377 0.02606167034638154 -2.3944687075821154e-05 0.0021775781282340457 0.0014371070161783095 0.0012110140882626616
 0.006682948323375776 -0.0012555093974219954 0.006400020016409554 -0.0010997245711610146 0.006483526668007623 -0.0011467213192344556 0.006415996623194561 -0.001181028638319264
 0.33370364462168095 -0.036900178641273436
 -0.0002788693343551548 0.0016263250605073477 -8.577746034201677e-05 0.0021735120926537482 -0.11954980733558399 0.028436685947315108 0.010524669352519533 0.0023756973631304875
 0.006701569971237652 -0.0011973520343802498 0.0063973880246988605 -0.0010705556033593362 0.00646020478353194 -0.001104263026330123 0.00643929151781124 -0.0011365796777185722
 0.3340944990097786 -0.03688437607829066
 0.0014105579549511975 0.0010184496471722104 0.0014160280771070056 0.0012158279628322226 0.01052605220118844 0.0023123767949644945 -0.13698320534454891 0.03379844439327072
 0.005122269002144789 -0.000784732264056804 0.005050024095718521 -0.0007475240013880859 0.0064089235826467516 -0.0010920439269345176 0.0063338576827460585 -0.00108949394387249
 0.32770658507831957 -0.035368862831771056
 0.006799254594036187 -0.0013204097201803388 0.0066804531591507866 -0.0012260925921112947 0.006733341139817327 -0.0011981782937289887 0.0050085795847252665 -0.0007476435705939581
 -0.11002492058214511 0.02264491547344295 0.008551608703723151 0.005811667273741006 -0.002870681444818904 0.0028706814448189043 -0.0029149128484629045 0.00256984136232324
 0.3340296148070586 -0.03746742450619992
 0.0064909150186324895 -0.0011913058337169624 0.006393230236543535 -0.0010951118577524205 0.006412083888687846 -0.0010270494376065668 0.004920442841136282 -0.0007116766802923986
 0.008498156897126588 0.005805747313615077 -0.12448990585793485 0.024672245363266555 -0.004222048244929545 0.0037340392772418855 -0.0042139138795051455 0.0030875083229352255
 0.3283362806969035 -0.03659672694381111
 0.00656375054588679 -0.0012177042379499193 0.006470799531352563 -0.0011316629833231938 0.006514795428940718 -0.0010995561573060655 0.006443802146658699 -0.0011107216167318336
 -0.002916087584525286 0.0028446972200487546 -0.004297261459928621 0.0037672705188565555 -0.12309032909587375 0.028417641623414615 0.008783174359274813 0.0016850144436414793
 0.3291440696499399 -0.036221554751197774
 0.00651964638693028 -0.0012448684027005785 0.006425645750929339 -0.0011700549404720193 0.006442698046044978 -0.0011603852494892109 0.0063469278175336185 -0.0011008685400420305
 -0.0028809959614069557 0.0025677758951018217 -0.004295282445089466 0.003088747628610969 0.008716156445924557 0.0016532379682543145 -0.1376447741445315 0.03099434691315152
 0.323643066642422 -0.03435895708571056
 0.3387356842055744 -0.037456609961603 0.3333132372134448 -0.03691589488264489 0.3336907436993168 -0.037016660937311534 0.3273356769721941 -0.03527103603915975
 0.33365831351283565 -0.03730784691350157 0.3282977766705759 -0.03694053976368427 0.32877795571797475 -0.036065114184192434 0.3235886964624866 -0.034867291828267796
 0.026828876525384748 0.014975722375617907
19.96 -0.11020697404875565 0.021741624063616155 0.014007404189323657 0.006049938317323479 0.00027688176307640597 0.0027691071606748795 0.0017230732331111238 0.0019592631830035994
 0.006856812537499985 -0.0012300292036350655 0.006556980655490142 -0.001078447689440416 0.006644339985407642 -0.0011166502690339098 0.006624333628667493 -0.00114183992468171
 0.3366427083319056 -0.05049180668655195
 0.013917536874203017 0.006037081173551502 -0.12515634760863373 0.025076861439663353 0.00035527801690763913 0.003509832424549076 0.0017690696969004385 0.0022651207259835786
 0.006782871184902233 -0.0011435840087947208 0.006479355558226859 -0.0009856947938197886 0.00654099640755107 -0.0010336516695205425 0.00650639185975907 -0.0010573019362594832
 0.3312079525627254 -0.05003136605574342
 0.00011600096442921814 0.0027676991653483 0.0003224250507022069 0.0035089264971788414 -0.11871877639718117 0.0270376216079676 0.010916252194930632 0.004938054409586609
 0.0068003585686833385 -0.0010345285078155707 0.006499542349626546 -0.0009528152644597701 0.0065720862983150614 -0.0009822048782360685 0.00651308390558364 -0.0010152637371562611
 0.33159822652720866 -0.0500311259187982
 0.0016883234454685028 0.0019774715414895816 0.0017567061061108864 0.002266364965362693 0.010896298764147121 0.0049152893194150974 -0.13581272085095294 0.03245536708530007
 0.005310823995373188 -0.0005525677924087369 0.0051624385374336185 -0.0005143698926739211 0.006509952639413672 -0.0009856999905365803 0.006428706946102418 -0.0009688077351542776
 0.3252394796287848 -0.04860736590879114
 0.006855736523780756 -0.0012360124322637882 0.0067790125933682955 -0.0011186118117171666 0.006800984690775981 -0.0010820377820830547 0.005162078181479862 -0.0005179738290287423
 -0.10918035740541768 0.02290841929376858 0.009158225906651827 0.007874536447960998 -0.0025515428050427442 0.0037418245686149203 -0.0025796253442910487 0.0033727897194588017
 0.3315456522451822 -0.050378347273499845
 0.006577194499198293 -0.0010971049478634936 0.006486128969508311 -0.0009913586838658105 0.006490755929351121 -0.0009075958032527424 0.005093432419127333 -0.0004886473922702786
 0.009137162571567888 0.007856425516703708 -0.12367150377158603 0.02504888072122753 -0.0037803462722450065 0.004907107764371106 -0.0038357623203150205 0.0040590421607801614
 0.3259037061705283 -0.049288301512838396
 0.006654320779430422 -0.0011040022551812576 0.006545615989850399 -0.0010531252808651055 0.006564695388097424 -0.0009799289832165192 0.006513017176866584 -0.0009652435405604478
 -0.0025525202471437165 0.003747471994259974 -0.003860973456201515 0.004917008597689004 -0.12231520239253761 0.02725104231048954 0.00930498262946047 0.004643349372514718
 0.32666360909053116 -0.04934490997888542
 0.00660069744235266 -0.0011425113863031261 0.0065049092459687815 -0.0010663855395057623 0.006528806945415982 -0.001013046441928795 0.00643303705076612 -0.0009396253136386743
 -0.002577895087908572 0.0033864225728536712 -0.003915089829275432 0.004045707139566448 0.009316028849994867 0.00459415701615064 -0.1371080650510845 0.02966886238156144
 0.321246365023908 -0.047322960579954595
 0.33666909963260255 -0.05031553406340173 0.3308355717696416 -0.049916057522299176 0.331580742167929 -0.05014687248531059 0.3252817737101864 -0.048323522447653734
 0.33156321740654177 -0.05026261294157867 0.32620991599473814 -0.04980060280809045 0.3266722164265985 -0.04928789567235816 0.3212049456339132 -0.047603282864112674
 0.028336410133207295 0.013789993081347079
24.95 -0.10984230594820547 0.022247864188042085 0.014848849451479301 0.007915230227052214 0.0006786908704076608 0.003683410885041863 0.0020685409761327937 0.0027430538796343186
 0.006942235574893487 -0.0012566120008088834 0.0066761799560385564 -0.0011148138257315954 0.006724830343410991 -0.001155537193098831 0.006646113863257548 -0.0011970221851517722
 0.33414856107076385 -0.0628964494510452
 0.014716338973664785 0.007917307076015736 -0.12480266524811277 0.026072635165482253 0.0007891957115030247 0.004626708847494058 0.0020946516486486833 0.003110130176071812
 0.006847436831911985 -0.0011434109477733122 0.006556976575698639 -0.0010303128342375868 0.006636488115669368 -0.001068934014835063 0.006575076088857611 -0.0011097302251645354
 0.32865368588587457 -0.06269404357946674
 0.0004907010625752952 0.003783358729093389 0.0008213515955393077 0.004648627006892257 -0.11799221905960922 0.027696552453831996 0.011487869331244875 0.00710059352872753
 0.006884074813570078 -0.001066941412347553 0.006613603711934795 -0.0009636416121041359 0.0066730910341392564 -0.0009842063122613483 0.006614717935473802 -0.0010583220811428054
 0.32868646735769413 -0.06252195232584012
 0.0020425355680130978 0.0027673929989528133 0.002068099006864202 0.003055718135310718 0.011469204900272577 0.007042112482595245 -0.1349656863315521 0.03322569311876479
 0.0054401515387527445 -0.00043579298950080503 0.005315643052892267 -0.00043422345482171796 0.0065877510857259005 -0.0009810198905529372 0.006488672907712696 -0.0010242224267666474
 0.3227086695077375 -0.061268155248291316
 0.006939015992535024 -0.0012285313184354533 0.006848233414598058 -0.0011386302567977606 0.006875408105955691 -0.001070513958325052 0.005313578750726264 -0.00038088206080871275
 -0.108345497766336 0.024337244011062003 0.009907039556579544 0.00974922555519466 -0.002190761051508781 0.004578621799757856 -0.0022526568305836904 0.004129949672778235
 0.32896637124106015 -0.06311079164996543
 0.006666740785921102 -0.0011240045617450145 0.006567030751174042 -0.0010154564729547959 0.0065763094004549615 -0.0009535194831879429 0.005230511227702242 -0.0003474101724255628
 0.009911635525242496 0.009767378236221405 -0.12297459805027937 0.026947730126735382 -0.0033080436318620437 0.005967868688400649 -0.0034329842544087038 0.004884642510113343
 0.32332326497233155 -0.06208669527162646
 0.006732346198921666 -0.0011109113421695336 0.006637232755058723 -0.0010643006119831762 0.006661588915991613 -0.001008659892807289 0.006587579765118406 -0.0009821696550727898
 -0.0022182119156201364 0.0045783910982933485 -0.003418804622213207 0.00603288569426825 -0.12170090825386214 0.02800739113974329 0.010060803062146526 0.006982028737762422
 0.3241119677071348 -0.06200356217470521
 0.006669527293558822 -0.001198835670207052 0.006567703970213336 -0.0011073070724903983 0.006586336428609049 -0.0010408166006017727 0.00649290622310999 -0.0009970338312595358
 -0.002203834805052066 0.0041378389142026056 -0.0035454959873999726 0.00493226297558694 0.010045573847074954 0.006979255812220026 -0.13655602586023477 0.03067406944503456
 0.3184588313995162 -0.059482901483424264
 0.3341704957154384 -0.06277980576991339 0.3282973662431297 -0.06250731233928121 0.3290213205283604 -0.06282369034027108 0.32240126049580065 -0.060860073888406974
 0.3286098370992489 -0.06292347183937208 0.323641352474081 -0.062440670483701464 0.32380371247961565 -0.06159316639145066 0.3183545291638567 -0.06003862611761981
 0.02986208536730493 0.013408026057306113
29.94 -0.10952511887719724 0.02376021826256137 0.01568246395354418 0.009557595566074993 0.0011332014862542503 0.004504808373624548 0.002445207587058746 0.003435659173518173
 0.007008160935719388 -0.0013914669585000595 0.0067001046433151305 -0.0012490497551746898 0.0067595343446718624 -0.0012308531876550656 0.006714825515255154 -0.0012979339075616175
 0.33115908017049783 -0.07535906981073358
 0.015603403091630606 0.009565524090081007 -0.1242297363607394 0.02801916446524573 0.001296972803250805 0.005626766640260747 0.002515524047247538 0.0038353517655339117
 0.006914448833978984 -0.0012279160059956123 0.006603862195092877 -0.0011240743309658453 0.006656107765470522 -0.00114014078497908 0.00663552531875311 -0.001211862104032983
 0.32530730770271915 -0.07486393600647379
 0.0009551629584483092 0.004540427410503554 0.0012650529461893313 0.005627219239796701 -0.11720385267996318 0.02917875116804992 0.01217000783624981 0.008998759611323978
