! Created with skrf (http://scikit-rf.org).
# Hz S RI R 50.0 
!freq ReS11 ImS11 ReS21 ImS21 ReS12 ImS12 ReS22 ImS22
10000000.0 0.5028360940235115 -0.18330456039400037 -10.068937822166955 1.8227378478294223 0.04624205978156008 0.022521857522079376 0.3582533861522912 -0.1615979010371919
15000000.0 0.44259472623503504 -0.24097999805655154 -9.540856165523454 2.0496333837813516 0.04992717693762347 0.026454706565115685 0.2968716310571278 -0.22455157062802567
20000000.0 0.3577086669081344 -0.2633815150205694 -8.989732467178875 2.455147369115774 0.058320998817620144 0.028275758205218344 0.21575581093063714 -0.24302750259817252
25000000.0 0.2910422459430386 -0.2670930021333894 -8.49030982781461 2.582385515994129 0.06496971218941137 0.026492617540736087 0.15489045715125355 -0.24675828590459936
30000000.0 0.2516424750621117 -0.25953417652435035 -8.107891514622233 2.502137403091857 0.06997571830506252 0.026242223317913423 0.11983801964370303 -0.2428347896738107
35000000.0 0.2193515291804528 -0.24776914400725916 -7.794965381128302 2.420102923785091 0.07372317622854209 0.025090511375415757 0.08906668813041484 -0.23232369784866
40000000.0 0.1856348968685142 -0.2333175235466464 -7.553887487329453 2.3831228207571944 0.07778601659287766 0.02247634204032607 0.059604217506751433 -0.22067955276471418
45000000.0 0.16216078777340232 -0.21952481845815364 -7.363395743479331 2.31897080785263 0.07997722992064125 0.020486893884581768 0.03921185553300645 -0.20915902798790326
50000000.0 0.1460019404472438 -0.1969331627988898 -7.201141835752641 2.247760795240076 0.08145031061311846 0.017480481985142713 0.026104723469292993 -0.19818595105613832
55000000.0 0.13118516016954282 -0.19483932507799676 -7.088534316290825 2.1476902621537692 0.08359471797649888 0.017733627565702365 0.010851946562663408 -0.18933998272965977
60000000.0 0.12180204056558794 -0.18144245165115297 -6.986990892698541 2.107966522916833 0.08628324047942533 0.0153517368125362 0.002245627880670962 -0.17802005843226157
65000000.0 0.10994970037365076 -0.17209007264748025 -6.9043550056360585 2.062752020226397 0.08602472688541872 0.014752106949748942 -0.008502339279130017 -0.17166884275988306
70000000.0 0.10304940513864208 -0.1624186604875316 -6.839588212264216 2.028290734788637 0.08677924279892965 0.01288347070537696 -0.014637690883852729 -0.16445361726730973
75000000.0 0.0965672481313492 -0.15348035315534087 -6.773857230484421 2.0026369598764906 0.08730447201018562 0.011934762916673622 -0.020777043339511747 -0.15823982053201846
80000000.0 0.0912534706231865 -0.1456290028335133 -6.724418581148924 1.9844732622354153 0.08756827733084611 0.010858081347683629 -0.026287205880540017 -0.1525614781182656
85000000.0 0.08714145875212069 -0.138051415927463 -6.680031411829257 1.971754960008182 0.08842538214312674 0.009347335764553467 -0.03011414903148926 -0.147077334706469
90000000.0 0.08306317715362965 -0.1315374610418456 -6.637966524340661 1.963496197702681 0.08880296119869664 0.008467928827445553 -0.033960248594867445 -0.14234082224071457
95000000.0 0.08032930271649194 -0.12536120069453627 -6.606137508611215 1.9614801459330775 0.088952394012407 0.007622946776908606 -0.03745288689210962 -0.13847310451046646
100000000.0 0.0777617009661637 -0.12002078223387146 -6.571449537506831 1.965904761212651 0.08919659338733865 0.0063134860069989866 -0.040573407830999865 -0.13484737095270452
105000000.0 0.07566431914410508 -0.11475532872145125 -6.545360449520375 1.9715991188520805 0.08942502238349784 0.005818629650587382 -0.04231585120352995 -0.1309569346488881
110000000.0 0.07326315067652414 -0.11088413218257301 -6.521171227150607 1.9862575434607614 0.08971442138045645 0.004935595162454838 -0.04456664017217067 -0.12809313541541906
115000000.0 0.07142375129237326 -0.10642748111457814 -6.494477921419948 1.9997485393108323 0.0902958530702783 0.003938467314573018 -0.04653898055693406 -0.12567904694187157
120000000.0 0.07027553610164997 -0.10196599636423158 -6.470832221354861 2.008132095547912 0.09042276315594398 0.0031070228660743026 -0.04806794621127457 -0.12310945875816
125000000.0 0.06889085475347541 -0.09849496745759377 -6.445878386459071 2.0241803293954086 0.0904891340002515 0.0023911853026088756 -0.049768239409507385 -0.12119085318107083
130000000.0 0.06648820861897166 -0.09465413297586185 -6.423885371618929 2.0397017562155653 0.0894895775365251 0.0020558980394756684 -0.05002366900741246 -0.11916456873438272
135000000.0 0.0670676271885128 -0.09154416730757821 -6.40639951677522 2.060386380686879 0.090454104689171 0.00110963338276828 -0.052198017241802334 -0.11738696404201297
140000000.0 0.06619507861272234 -0.08921499278217132 -6.38455478042817 2.0813198097387535 0.09054623998382604 0.0007161783013958717 -0.05321161233826208 -0.11635619802857004
145000000.0 0.06558301256062413 -0.08614545644888515 -6.36612968263554 2.1041382635986494 0.09093944391149879 -9.576505384254255e-05 -0.054152639558957494 -0.11513602072793384
150000000.0 0.06476333865283491 -0.08273248532970497 -6.34583803586582 2.118942005583671 0.09129277738440247 -0.0005211153341814239 -0.0546619057820232 -0.1139442605422506
155000000.0 0.06393068119995327 -0.08060242699959412 -6.323143536967125 2.145888419079715 0.0912095708531976 -0.0016328584321762987 -0.056964379913101895 -0.11288384777503187
160000000.0 0.0632430730875207 -0.07797837668379953 -6.308944475282176 2.1708047049261276 0.09079872595841723 -0.001798992348947852 -0.05680896577078812 -0.1120545993947121
165000000.0 0.06287031998594118 -0.0759994531283384 -6.289252101843419 2.199791660242509 0.09066139760328407 -0.0026403327073849787 -0.05804193807500018 -0.11125561352429245
170000000.0 0.06274620847073838 -0.07402677929534135 -6.268516169317428 2.228445886457563 0.09083461970162408 -0.00289255895362554 -0.05943891580397047 -0.11104335619116044
175000000.0 0.062053561904437726 -0.07136546392788379 -6.250765693753775 2.2569719386162053 0.09083869040867246 -0.0032522245269118303 -0.06009748626997229 -0.10975619666081016
180000000.0 0.06256822970446067 -0.06999803069726625 -6.233546185476209 2.28537411701992 0.09089326654343366 -0.003703725757129843 -0.06058589319192456 -0.10972987522906189
185000000.0 0.06232876080243644 -0.0682854098192446 -6.215689051091781 2.315336212127576 0.0910287934582128 -0.004377872740689498 -0.06140292171748413 -0.10937577116548468
190000000.0 0.06265811913842864 -0.06653186213671074 -6.195965692090509 2.3510537057995267 0.09117948397939099 -0.0046738598484772674 -0.06206259826606708 -0.10984866438285183
195000000.0 0.06174213349033316 -0.06516572330789731 -6.178610824384596 2.3785795251992967 0.09062869390778962 -0.005474241538057116 -0.06289510882594145 -0.10923275508015942
200000000.0 0.062074040768537495 -0.06337967226415961 -6.158264311008712 2.409925613209676 0.09090853830423468 -0.005926172674778957 -0.06335060977489249 -0.10928685152478086
205000000.0 0.06150856917614032 -0.0617025605187588 -6.139017916423712 2.4429623207916107 0.09078965068061681 -0.006360425617379928 -0.06455050988174041 -0.10877253341393514
210000000.0 0.06182705051789868 -0.06051437321487075 -6.11796212139711 2.4729354314418117 0.09101714837561539 -0.006598508950767549 -0.0653014987326694 -0.10866145867933485
215000000.0 0.062033883848537925 -0.059910741389109894 -6.098837325153022 2.5101490602275556 0.09129002968918468 -0.007338480237063701 -0.06592561570326534 -0.10929391412732885
220000000.0 0.062450729491538036 -0.05874622055136104 -6.082666295085073 2.541316905760056 0.09073957897188609 -0.00818507159134648 -0.06619897123854052 -0.10919046113398509
225000000.0 0.06282311728096693 -0.057766105100296714 -6.061999836334314 2.57354161928663 0.09085500342060011 -0.008278007873026006 -0.06698008147078617 -0.10928614040412747
230000000.0 0.06223225705917491 -0.056797125630596065 -6.041299416324098 2.6121752731794428 0.09084526138263757 -0.008475089585710882 -0.06830430741925873 -0.11028602524375879
235000000.0 0.06303453888892781 -0.05572658184194372 -6.020574205162582 2.6425466876184993 0.0909901940437581 -0.009141786099148123 -0.06829340063592423 -0.11081682147866118
240000000.0 0.06252507412786008 -0.055268313919395656 -6.000668233510304 2.6782479359476525 0.09093606743119653 -0.009553011063383042 -0.06936149220305639 -0.11148030844121819
245000000.0 0.063246447382144 -0.05435780864594952 -5.9798159042818 2.7135971693111856 0.09086384655132025 -0.009823577575431305 -0.0697791106554481 -0.11171632369346222
250000000.0 0.0631477156015755 -0.05282175179383041 -5.959152907766316 2.74622386747128 0.09073072390246222 -0.010697124892236008 -0.06990310238039453 -0.11200098313653845
255000000.0 0.06316550915274717 -0.05219910733895313 -5.936698626409838 2.778387926387781 0.09092512851830051 -0.010692883071076815 -0.07094039396100245 -0.11258780070920664
260000000.0 0.06333245404685495 -0.051980520335527094 -5.917586130839454 2.8153199887766895 0.09071112090944396 -0.011146851279025165 -0.07208372497279768 -0.11310477472396745
265000000.0 0.06478270158400574 -0.05135416676348801 -5.898065208714893 2.847274700685233 0.09070282856239816 -0.011574718461439714 -0.07146945819891949 -0.11333974327573501
270000000.0 0.06454616877258304 -0.05005664333196454 -5.874051706573058 2.8840789235844024 0.09049258641939599 -0.011925813983156572 -0.07292333633829307 -0.11384046907310974
275000000.0 0.06472438068610462 -0.04992450499842498 -5.8515549142573615 2.9247233104478494 0.09084421893927083 -0.012336089467942181 -0.07285308357615133 -0.11441458953978467
280000000.0 0.06479137468984289 -0.048997348619875244 -5.827478731255588 2.954504582969498 0.09070921831598344 -0.012618739614212093 -0.07465690992906968 -0.11524140683159143
285000000.0 0.06551738992502937 -0.04841945566582246 -5.808105061211122 2.9895371087086033 0.09077426987028897 -0.012986779901403123 -0.07437624300532802 -0.11551867933782278
290000000.0 0.06558861131709412 -0.047592934325073534 -5.784261294435991 3.0272178615985763 0.09040900091011582 -0.013194218912777667 -0.07456871313317204 -0.11591047400188173
295000000.0 0.0655779793208114 -0.04698666090745086 -5.7555645381211455 3.060016628428078 0.09029961484503775 -0.014122063772337297 -0.07608650760537083 -0.11729017022394042
300000000.0 0.06630016831082328 -0.04662838838220622 -5.735910196840666 3.095279103121933 0.09023922929109016 -0.014476329759328976 -0.0768333135076837 -0.11763619660430455
305000000.0 0.06693795903468107 -0.04598578398795754 -5.714010419235816 3.1300281156611356 0.09043379325786632 -0.01439819913175913 -0.07749322682551095 -0.11758537775781029
310000000.0 0.06639949969005157 -0.045959570466918176 -5.690608668997889 3.167013527649458 0.09024372444235056 -0.0151439533230492 -0.07879694017177565 -0.11876928452475252
315000000.0 0.06775867815116962 -0.0455132646344515 -5.667423380169985 3.2026096219597053 0.08993325983220234 -0.015528828640755441 -0.07826650298653669 -0.11978801780299056
320000000.0 0.06738977857636333 -0.04528355952518577 -5.640315801071638 3.2363466042634372 0.08993016395517725 -0.01574426924106028 -0.07965289603124072 -0.11979832398068879
325000000.0 0.0677932656433838 -0.04557302899095073 -5.616556893533837 3.270764313987804 0.09029012086331742 -0.016105297468818773 -0.08060312376576104 -0.1216635707515165
330000000.0 0.06808318438158432 -0.0447058444812877 -5.589956117272388 3.306114676014205 0.08977754344491407 -0.016667405867620243 -0.08135498643746558 -0.12178442376747031
335000000.0 0.06855336732586016 -0.044107442704726 -5.561424185456257 3.3405704702328607 0.08928149484931862 -0.01674151462285 -0.08133194663016251 -0.12235973651782125
340000000.0 0.06867768850717493 -0.044246010778699746 -5.540977148920253 3.375023638381462 0.08976805111197655 -0.016955196425020882 -0.08264359659021026 -0.12344593352253777
345000000.0 0.06985126058432135 -0.0440491083679171 -5.514862060974232 3.4091731602290523 0.08943915330589962 -0.017340469893019673 -0.0826745326826366 -0.12403182066367485
350000000.0 0.07110314285976155 -0.04400309905284314 -5.492836069264652 3.442257290353819 0.0898082032857485 -0.01796680408355748 -0.08370448266749132 -0.12549724614662677
355000000.0 0.0711105413486767 -0.04342994788861027 -5.459935841708271 3.4810167253424398 0.0895331385118964 -0.018410907262026294 -0.08448492638749812 -0.12616397198886822
360000000.0 0.07125819957177018 -0.043858741318832904 -5.433137552848715 3.5120709575895566 0.08909321908144341 -0.018253470629686182 -0.08551079636580941 -0.12638348001441754
365000000.0 0.07154432066521933 -0.043414602707229424 -5.408092415569707 3.546821156649416 0.08951031307249183 -0.0190562471720518 -0.08620536153393586 -0.12739662096157456
370000000.0 0.07224014986680696 -0.0433402733153222 -5.378681033043681 3.579097223971118 0.08919058698771319 -0.019369869494969886 -0.08710094661734157 -0.12836361174492544
375000000.0 0.0729736974233009 -0.043434587142071046 -5.351139952982575 3.6116313236504207 0.0894483884388343 -0.019527909991916604 -0.08762924399536322 -0.12885253196067914
380000000.0 0.07322015383483278 -0.04340491996525253 -5.32445336572642 3.650741856377676 0.08917616326078781 -0.019720946361911174 -0.08811846851529918 -0.13023365108547674
385000000.0 0.07374557875751808 -0.04325285011669782 -5.298282983876809 3.6839245544951176 0.08914039928725163 -0.02036838095929499 -0.08893881722972839 -0.13069966663361401
390000000.0 0.07381422253127125 -0.043505690891959825 -5.265891117184744 3.715544602340614 0.08907068876657791 -0.020374389732579257 -0.09041436762183692 -0.13151094943472103
395000000.0 0.07420960431029888 -0.043412105820188805 -5.238457849296617 3.7504928156562594 0.08907168569057061 -0.02093714338649706 -0.09068624695805472 -0.13211423720328436
400000000.0 0.07520753452425875 -0.04352251960872103 -5.210893494088405 3.7835742420052685 0.08942470528510862 -0.02142906139080351 -0.0916516785272705 -0.1332279566717373
405000000.0 0.07532924321968605 -0.04390217989222648 -5.181107876426994 3.8149321692686793 0.08883446607229953 -0.021833368878819502 -0.09247878560849053 -0.1342781178177998
410000000.0 0.07617424263767665 -0.043195737272031735 -5.150750133908167 3.8473266572597202 0.08841748685514374 -0.02182234838647014 -0.09364478218568405 -0.1352482978854917
415000000.0 0.07687464240323269 -0.044465118709242295 -5.12125120917731 3.881510769621737 0.0885824397908605 -0.022676105876031548 -0.09391976296990426 -0.13564594603131463
420000000.0 0.07729624614551439 -0.04384949747207668 -5.089951141607062 3.9142591625147665 0.08875336493316802 -0.02274049344890881 -0.09477318393168577 -0.13658954116271532
425000000.0 0.07799851812750304 -0.043487732101257844 -5.062138494591428 3.9480810525936367 0.0884010444749456 -0.022959884765480026 -0.09555741448934281 -0.13711240783867712
430000000.0 0.07804752291441674 -0.0444575675612901 -5.03067250026152 3.9806621957557744 0.08862989055498448 -0.023203725385563388 -0.097292445726151 -0.13757745370216973
435000000.0 0.07925007442933205 -0.04450804730548 -4.99937473268288 4.00718893658366 0.08815589793884969 -0.024020651251687442 -0.09730189687279076 -0.13916922610243776
440000000.0 0.07955806733325742 -0.044084638579229375 -4.969026303855001 4.041243430470208 0.08808412876670672 -0.024489523191623366 -0.09817944154060927 -0.13937902114241782
445000000.0 0.08063290218291631 -0.04512420986239429 -4.938944276573522 4.071698314288401 0.08794863312226993 -0.024705048114715106 -0.09942228112616953 -0.14106965396943183
450000000.0 0.08032049322214314 -0.04531637622678706 -4.905812541043583 4.1044419404611086 0.08812803341367244 -0.024452622476872587 -0.10058016356994522 -0.14189316814272865
455000000.0 0.08148044910815354 -0.04550286083270479 -4.873426623125034 4.137237125586569 0.08814878690357886 -0.02474193524047278 -0.10138971986599521 -0.14288086085360488
460000000.0 0.08209932987622577 -0.04497222981837387 -4.840352553017748 4.165403133140179 0.08753707544055389 -0.025336568650234793 -0.10218056032352264 -0.14321591766816397
465000000.0 0.08217899534430397 -0.045737967412345475 -4.809877147809769 4.197047669948533 0.08796456743291212 -0.025825364743396768 -0.10319451759108965 -0.144395985999035
470000000.0 0.08297794450053636 -0.04608217240068652 -4.778673994706096 4.227963359022615 0.08760435735323888 -0.026366602757749966 -0.10401551579618903 -0.14529752090637768
475000000.0 0.08363101851982348 -0.04654747319509608 -4.7453639922538455 4.257293943660835 0.08742143568544082 -0.026661776127848178 -0.10517618408207226 -0.14640806658371225
480000000.0 0.08480919145930704 -0.04718846889551003 -4.71417842828391 4.288670943986711 0.0872759689670869 -0.02660530993311412 -0.10570062572518936 -0.14716192242554402
485000000.0 0.08483267564507899 -0.047037630852921376 -4.676906426178933 4.3190673318654635 0.08743733351632307 -0.026876635388332272 -0.10723861967956894 -0.14765710874737586
490000000.0 0.08598559383720686 -0.04800935480983918 -4.646426050555661 4.346223238928485 0.08720734051337593 -0.027540768606635763 -0.10804722951662778 -0.14910683422812812
495000000.0 0.08674100349538987 -0.04790089246407879 -4.613132232813334 4.373493455228105 0.08717822782050817 -0.027663807564500827 -0.10862908284735756 -0.14983109674724013
500000000.0 0.08683928886437436 -0.048305428227765866 -4.579121977554126 4.403909730392979 0.0871233160135671 -0.027913978499672056 -0.10951625717424744 -0.15070521874156334
505000000.0 0.08794814502348927 -0.04822820057441064 -4.544924948463875 4.433550764223547 0.08718005958867371 -0.028507146080591825 -0.11016966697920916 -0.1517775298713152
510000000.0 0.08779328665598912 -0.049340539445817726 -4.508736191360972 4.467128287011742 0.08661114399531648 -0.028698762311312045 -0.11184365131870866 -0.15254554609174217
515000000.0 0.08919096853388545 -0.04963693984332556 -4.474590282226123 4.492008007117334 0.08632282601238722 -0.029196920057370228 -0.11277658709155255 -0.15305367345529816
520000000.0 0.08944637740617441 -0.050024582557792026 -4.438577266866904 4.524416040687367 0.08645897476140418 -0.02927574696664862 -0.11341992802679521 -0.1542591387497381
525000000.0 0.09022913675833402 -0.050390353949586124 -4.40261300817731 4.54830301245365 0.0865414856229358 -0.02953076995220063 -0.1144722725284051 -0.1548100047531809
530000000.0 0.09102235031790201 -0.051169179439484874 -4.365452784762083 4.576462810443918 0.08620700662276808 -0.02981796986534529 -0.11580576193113219 -0.15624628724846915
535000000.0 0.09166634705079045 -0.051757558324699755 -4.337478236962307 4.605057536115356 0.08608551539355401 -0.030319076811174413 -0.11670809454476838 -0.15700900059161574
540000000.0 0.09250107204039826 -0.05202423687038162 -4.299767526772913 4.633794128224756 0.08638715909736487 -0.030392185696722467 -0.1178135721191471 -0.1577358850232325
545000000.0 0.0926494370395225 -0.052704822894760285 -4.26135974407059 4.659463546906903 0.08603201731494395 -0.030949806417844162 -0.11871784042321798 -0.15901545970836795
550000000.0 0.09374371005074102 -0.05383820846462086 -4.226964398042166 4.681931888229494 0.08572695789482458 -0.03133139179197885 -0.11938677003014778 -0.1596625112504385
555000000.0 0.0943361288328799 -0.05362653757226025 -4.1923899674336225 4.70828021530308 0.08586957640855936 -0.031497474105121166 -0.1204872394986581 -0.16033399624038366
560000000.0 0.09486029622334882 -0.05472733920649857 -4.154602610970368 4.738434474026295 0.08537913278475953 -0.031895812429844385 -0.12236100385719191 -0.16161958402039242
565000000.0 0.09522646970725172 -0.055193235679177374 -4.118206460709745 4.760545937797749 0.08529803385954847 -0.03246856632115192 -0.12304821121853324 -0.1623717292595809
570000000.0 0.09617503553052113 -0.05571562801891808 -4.082061162097386 4.783788677611619 0.08545469615655667 -0.03242245796024264 -0.12458313775890133 -0.16293326713250758
575000000.0 0.0967807103697259 -0.05635517231968999 -4.04414612369274 4.808861132873899 0.08514837907903725 -0.03274911756106726 -0.12542152713987703 -0.16398167149671952
